(1753640723.294567) vcan0 244#00000001E9
(1753640723.314296) vcan0 244#000000019A
(1753640723.333349) vcan0 244#00000001AC
(1753640723.345950) vcan0 244#0000000175
(1753640723.361434) vcan0 244#00000001AE
(1753640723.376789) vcan0 244#0000000186
(1753640723.393798) vcan0 244#0000000166
(1753640723.407441) vcan0 244#000000018C
(1753640723.422381) vcan0 244#00000001E1
(1753640723.438030) vcan0 244#00000001F6
(1753640723.438106) vcan0 188#00000000
(1753640723.454537) vcan0 244#00000001D7
(1753640723.469052) vcan0 244#0000000100
(1753640723.484672) vcan0 244#000000019A
(1753640723.500756) vcan0 244#000000019B
(1753640723.516594) vcan0 244#0000000139
(1753640723.531955) vcan0 244#0000000154
(1753640723.544380) vcan0 244#00000001EF
(1753640723.562359) vcan0 244#00000001EE
(1753640723.575901) vcan0 244#0000000137
(1753640723.594254) vcan0 244#0000000113
(1753640723.608759) vcan0 244#00000001CC
(1753640723.625326) vcan0 244#00000001AF
(1753640723.640750) vcan0 244#0000000195
(1753640723.655924) vcan0 244#00000001F8
(1753640723.671914) vcan0 244#0000000134
(1753640723.687183) vcan0 244#0000000105
(1753640723.703477) vcan0 244#0000000154
(1753640723.718011) vcan0 244#0000000152
(1753640723.734103) vcan0 244#0000000146
(1753640723.749207) vcan0 244#000000015B
(1753640723.765465) vcan0 244#00000001D6
(1753640723.780682) vcan0 244#00000001CC
(1753640723.796315) vcan0 244#0000000111
(1753640723.808595) vcan0 244#000000011F
(1753640723.827504) vcan0 244#00000001DD
(1753640723.843143) vcan0 244#000000015B
(1753640723.858536) vcan0 244#0000000141
(1753640723.874872) vcan0 244#000000015F
(1753640723.889963) vcan0 244#0000000104
(1753640723.907768) vcan0 244#000000013E
(1753640723.922084) vcan0 244#0000000172
(1753640723.937768) vcan0 244#00000001F7
(1753640723.949517) vcan0 244#00000001DC
(1753640723.950032) vcan0 188#00000000
(1753640723.968380) vcan0 244#00000001A8
(1753640723.985605) vcan0 244#000000012E
(1753640724.000553) vcan0 244#0000000131
(1753640724.016126) vcan0 244#0000000118
(1753640724.030818) vcan0 244#0000000139
(1753640724.046438) vcan0 244#00000001BC
(1753640724.062612) vcan0 244#00000001EC
(1753640724.077206) vcan0 244#0000000169
(1753640724.095973) vcan0 244#0000000124
(1753640724.107893) vcan0 244#00000001B7
(1753640724.124329) vcan0 244#000000019A
(1753640724.139466) vcan0 244#0000000139
(1753640724.155096) vcan0 244#0000000108
(1753640724.170588) vcan0 244#00000001BB
(1753640724.184806) vcan0 244#000000012A
(1753640724.200349) vcan0 244#00000001F7
(1753640724.216344) vcan0 244#000000019E
(1753640724.231777) vcan0 244#00000001A2
(1753640724.246987) vcan0 244#00000001E9
(1753640724.262596) vcan0 244#0000000187
(1753640724.278010) vcan0 244#0000000150
(1753640724.293147) vcan0 244#00000001A5
(1753640724.309537) vcan0 244#0000000100
(1753640724.323450) vcan0 244#00000001C8
(1753640724.339380) vcan0 244#0000000183
(1753640724.354763) vcan0 244#000000017C
(1753640724.371206) vcan0 244#00000001E8
(1753640724.387118) vcan0 244#000000015E
(1753640724.402139) vcan0 244#000000018A
(1753640724.418301) vcan0 244#000000017C
(1753640724.433493) vcan0 244#0000000156
(1753640724.449242) vcan0 244#000000014D
(1753640724.456307) vcan0 188#00000000
(1753640724.464763) vcan0 244#00000001C7
(1753640724.480830) vcan0 244#0000000124
(1753640724.496389) vcan0 244#0000000102
(1753640724.510924) vcan0 244#000000011C
(1753640724.527778) vcan0 244#000000017D
(1753640724.542844) vcan0 244#000000010A
(1753640724.557343) vcan0 244#0000000122
(1753640724.573778) vcan0 244#00000001BE
(1753640724.588404) vcan0 244#000000015E
(1753640724.604511) vcan0 244#00000001D8
(1753640724.620434) vcan0 244#0000000194
(1753640724.635176) vcan0 244#0000000183
(1753640724.651032) vcan0 244#00000001B0
(1753640724.666094) vcan0 244#000000015A
(1753640724.681572) vcan0 244#0000000196
(1753640724.696962) vcan0 244#00000001EA
(1753640724.712732) vcan0 244#0000000118
(1753640724.728967) vcan0 244#000000011B
(1753640724.743863) vcan0 244#000000018D
(1753640724.759639) vcan0 244#0000000185
(1753640724.774960) vcan0 244#000000015D
(1753640724.791449) vcan0 244#00000001AA
(1753640724.806852) vcan0 244#00000001EA
(1753640724.821719) vcan0 244#000000017D
(1753640724.837273) vcan0 244#00000001C2
(1753640724.852202) vcan0 244#00000001EE
(1753640724.868171) vcan0 244#00000001F7
(1753640724.883014) vcan0 244#00000001E9
(1753640724.898987) vcan0 244#0000000187
(1753640724.915064) vcan0 244#00000001EA
(1753640724.929200) vcan0 244#00000001D3
(1753640724.945322) vcan0 244#00000001EA
(1753640724.961304) vcan0 244#00000001AB
(1753640724.961339) vcan0 188#00000000
(1753640724.975810) vcan0 244#00000001F2
(1753640724.990996) vcan0 244#0000000122
(1753640725.006102) vcan0 244#0000000144
(1753640725.021311) vcan0 244#0000000199
(1753640725.036721) vcan0 244#00000001E1
(1753640725.052263) vcan0 244#000000019F
(1753640725.067806) vcan0 244#0000000113
(1753640725.083388) vcan0 244#00000001D6
(1753640725.099289) vcan0 244#000000014E
(1753640725.114626) vcan0 244#0000000132
(1753640725.130095) vcan0 244#0000000122
(1753640725.146147) vcan0 244#00000001C5
(1753640725.160995) vcan0 244#0000000165
(1753640725.172798) vcan0 244#0000000128
(1753640725.192252) vcan0 244#000000017A
(1753640725.207741) vcan0 244#000000011D
(1753640725.223059) vcan0 244#0000000152
(1753640725.238324) vcan0 244#000000019C
(1753640725.253801) vcan0 244#0000000117
(1753640725.268866) vcan0 244#0000000199
(1753640725.284488) vcan0 244#00000001A2
(1753640725.301104) vcan0 244#00000001B0
(1753640725.316249) vcan0 244#00000001F7
(1753640725.332085) vcan0 244#000000012C
(1753640725.347633) vcan0 244#0000000144
(1753640725.363636) vcan0 244#00000001FC
(1753640725.378383) vcan0 244#000000014F
(1753640725.394627) vcan0 244#00000001CB
(1753640725.406494) vcan0 244#00000001EC
(1753640725.425282) vcan0 244#0000000155
(1753640725.440807) vcan0 244#0000000193
(1753640725.455313) vcan0 244#000000017B
(1753640725.470912) vcan0 244#0000000115
(1753640725.471010) vcan0 188#00000000
(1753640725.486650) vcan0 244#0000000174
(1753640725.501975) vcan0 244#000000012F
(1753640725.517274) vcan0 244#0000000112
(1753640725.533650) vcan0 244#000000012E
(1753640725.548565) vcan0 244#00000001E0
(1753640725.564203) vcan0 244#0000000185
(1753640725.579930) vcan0 244#0000000119
(1753640725.595475) vcan0 244#00000001AF
(1753640725.610539) vcan0 244#00000001C3
(1753640725.625462) vcan0 244#000000017B
(1753640725.640656) vcan0 244#00000001B1
(1753640725.656214) vcan0 244#0000000189
(1753640725.671635) vcan0 244#0000000110
(1753640725.687817) vcan0 244#00000001EA
(1753640725.701765) vcan0 244#00000001F7
(1753640725.718417) vcan0 244#00000001C8
(1753640725.733972) vcan0 244#000000019E
(1753640725.749538) vcan0 244#000000012C
(1753640725.765638) vcan0 244#0000000106
(1753640725.780295) vcan0 244#00000001EA
(1753640725.796132) vcan0 244#000000013F
(1753640725.811747) vcan0 244#000000014F
(1753640725.827546) vcan0 244#000000014A
(1753640725.843381) vcan0 244#00000001D9
(1753640725.859603) vcan0 244#00000001BB
(1753640725.873492) vcan0 244#00000001B3
(1753640725.888523) vcan0 244#00000001E1
(1753640725.920168) vcan0 244#00000001AE
(1753640725.936020) vcan0 244#00000001E2
(1753640725.951847) vcan0 244#00000001F8
(1753640725.966784) vcan0 244#00000001DF
(1753640725.982255) vcan0 244#0000000172
(1753640725.982359) vcan0 188#00000000
(1753640725.997151) vcan0 244#00000001C4
(1753640726.012763) vcan0 244#000000018E
(1753640726.028588) vcan0 244#000000013C
(1753640726.044271) vcan0 244#00000001C0
(1753640726.058972) vcan0 244#000000012F
(1753640726.075171) vcan0 244#0000000172
(1753640726.090613) vcan0 244#000000010C
(1753640726.105825) vcan0 244#000000010E
(1753640726.118753) vcan0 244#0000000108
(1753640726.135884) vcan0 244#00000001D9
(1753640726.151261) vcan0 244#0000000133
(1753640726.166890) vcan0 244#00000001B5
(1753640726.177076) vcan0 244#000000015F
(1753640726.199374) vcan0 244#00000001C7
(1753640726.230322) vcan0 244#000000019A
(1753640726.245624) vcan0 244#0000000119
(1753640726.261283) vcan0 244#000000010F
(1753640726.276586) vcan0 244#00000001BC
(1753640726.292434) vcan0 244#000000011F
(1753640726.307692) vcan0 244#000000016C
(1753640726.323121) vcan0 244#00000001A8
(1753640726.338956) vcan0 244#0000000107
(1753640726.354699) vcan0 244#0000000160
(1753640726.368021) vcan0 244#0000000100
(1753640726.384760) vcan0 244#0000000156
(1753640726.400375) vcan0 244#00000001DE
(1753640726.416109) vcan0 244#00000001CA
(1753640726.431440) vcan0 244#0000000154
(1753640726.446555) vcan0 244#00000001F2
(1753640726.457296) vcan0 244#00000001C5
(1753640726.477506) vcan0 244#00000001E2
(1753640726.491864) vcan0 244#0000000152
(1753640726.492225) vcan0 188#00000000
(1753640726.503778) vcan0 244#000000016F
(1753640726.522648) vcan0 244#00000001BB
(1753640726.538651) vcan0 244#000000012F
(1753640726.554586) vcan0 244#00000001BA
(1753640726.565446) vcan0 244#00000001C9
(1753640726.584894) vcan0 244#00000001D8
(1753640726.601605) vcan0 244#0000000166
(1753640726.618462) vcan0 244#000000016E
(1753640726.631388) vcan0 244#000000014D
(1753640726.642286) vcan0 244#0000000135
(1753640726.679422) vcan0 244#000000013E
(1753640726.695977) vcan0 244#00000001C9
(1753640726.711593) vcan0 244#0000000119
(1753640726.727681) vcan0 244#0000000175
(1753640726.743208) vcan0 244#000000017F
(1753640726.758987) vcan0 244#0000000144
(1753640726.774200) vcan0 244#00000001CE
(1753640726.790538) vcan0 244#000000013A
(1753640726.805854) vcan0 244#000000014C
(1753640726.820746) vcan0 244#0000000192
(1753640726.835717) vcan0 244#00000001DE
(1753640726.851839) vcan0 244#0000000149
(1753640726.867533) vcan0 244#00000001AE
(1753640726.882507) vcan0 244#0000000150
(1753640726.898425) vcan0 244#00000001C4
(1753640726.912905) vcan0 244#0000000114
(1753640726.928021) vcan0 244#00000001C1
(1753640726.943784) vcan0 244#0000000152
(1753640726.959169) vcan0 244#00000001F5
(1753640726.974732) vcan0 244#000000013F
(1753640726.990655) vcan0 244#00000001C2
(1753640727.007429) vcan0 244#0000000101
(1753640727.007475) vcan0 188#00000000
(1753640727.022915) vcan0 244#0000000116
(1753640727.037473) vcan0 244#000000018E
(1753640727.052749) vcan0 244#0000000157
(1753640727.063277) vcan0 244#00000001FB
(1753640727.084310) vcan0 244#0000000102
(1753640727.100807) vcan0 244#0000000159
(1753640727.112310) vcan0 244#0000000105
(1753640727.123401) vcan0 244#000000016C
(1753640727.147653) vcan0 244#00000001AC
(1753640727.162929) vcan0 244#0000000160
(1753640727.179486) vcan0 244#0000000150
(1753640727.194327) vcan0 244#0000000161
(1753640727.209436) vcan0 244#0000000172
(1753640727.225459) vcan0 244#000000016C
(1753640727.240315) vcan0 244#00000001C2
(1753640727.256042) vcan0 244#000000015B
(1753640727.268065) vcan0 244#00000001C2
(1753640727.287515) vcan0 244#00000001AC
(1753640727.308110) vcan0 244#000000018B
(1753640727.334121) vcan0 244#000000013D
(1753640727.349467) vcan0 244#0000000192
(1753640727.370137) vcan0 244#00000001D5
(1753640727.395801) vcan0 244#00000001AA
(1753640727.411986) vcan0 244#00000001F3
(1753640727.426779) vcan0 244#0000000106
(1753640727.442410) vcan0 244#0000000108
(1753640727.458870) vcan0 244#0000000161
(1753640727.473907) vcan0 244#0000000198
(1753640727.489333) vcan0 244#0000000164
(1753640727.505011) vcan0 244#00000001C0
(1753640727.511090) vcan0 188#00000000
(1753640727.520628) vcan0 244#00000001B5
(1753640727.536528) vcan0 244#0000000117
(1753640727.552564) vcan0 244#000000016A
(1753640727.567165) vcan0 244#00000001AA
(1753640727.582500) vcan0 244#00000001AF
(1753640727.598667) vcan0 244#0000000188
(1753640727.611751) vcan0 244#000000011F
(1753640727.629616) vcan0 244#00000001D1
(1753640727.644843) vcan0 244#000000010F
(1753640727.660743) vcan0 244#0000000168
(1753640727.676606) vcan0 244#000000014D
(1753640727.692420) vcan0 244#00000001FC
(1753640727.708209) vcan0 244#00000001E5
(1753640727.724375) vcan0 244#00000001DB
(1753640727.738883) vcan0 244#0000000104
(1753640727.754493) vcan0 244#0000000144
(1753640727.770425) vcan0 244#00000001D4
(1753640727.784773) vcan0 244#0000000164
(1753640727.800618) vcan0 244#000000010C
(1753640727.816503) vcan0 244#000000017B
(1753640727.832198) vcan0 244#00000001BD
(1753640727.847965) vcan0 244#000000013A
(1753640727.863024) vcan0 244#00000001EC
(1753640727.877821) vcan0 244#0000000103
(1753640727.893239) vcan0 244#0000000149
(1753640727.908265) vcan0 244#000000010E
(1753640727.925721) vcan0 244#0000000127
(1753640727.940358) vcan0 244#00000001C8
(1753640727.956303) vcan0 244#00000001C3
(1753640727.971146) vcan0 244#0000000128
(1753640727.987171) vcan0 244#0000000124
(1753640728.001683) vcan0 244#0000000194
(1753640728.017467) vcan0 244#000000015B
(1753640728.017547) vcan0 188#00000000
(1753640728.032635) vcan0 244#00000001AB
(1753640728.049032) vcan0 244#0000000159
(1753640728.063574) vcan0 244#0000000126
(1753640728.079932) vcan0 244#00000001CF
(1753640728.095018) vcan0 244#0000000116
(1753640728.111641) vcan0 244#0000000113
(1753640728.122951) vcan0 244#000000017C
(1753640728.141831) vcan0 244#000000019A
(1753640728.157311) vcan0 244#000000017D
(1753640728.172699) vcan0 244#0000000114
(1753640728.187699) vcan0 244#000000019C
(1753640728.203604) vcan0 244#00000001F5
(1753640728.218904) vcan0 244#0000000135
(1753640728.234650) vcan0 244#00000001FC
(1753640728.251472) vcan0 244#0000000166
(1753640728.266970) vcan0 244#00000001B5
(1753640728.282474) vcan0 244#00000001A5
(1753640728.298460) vcan0 244#000000017D
(1753640728.314466) vcan0 244#000000010E
(1753640728.329730) vcan0 244#000000017C
(1753640728.341472) vcan0 244#0000000185
(1753640728.361160) vcan0 244#000000012D
(1753640728.377496) vcan0 244#00000001E2
(1753640728.388052) vcan0 244#00000001B0
(1753640728.407680) vcan0 244#00000001F2
(1753640728.422895) vcan0 244#0000000146
(1753640728.437944) vcan0 244#000000010F
(1753640728.453509) vcan0 244#0000000136
(1753640728.470202) vcan0 244#0000000187
(1753640728.484878) vcan0 244#000000013F
(1753640728.500361) vcan0 244#00000001AE
(1753640728.516996) vcan0 244#00000001CE
(1753640728.525000) vcan0 188#00000000
(1753640728.532010) vcan0 244#0000000136
(1753640728.547905) vcan0 244#00000001F0
(1753640728.579290) vcan0 244#00000001BA
(1753640728.594745) vcan0 244#0000000169
(1753640728.610047) vcan0 244#0000000120
(1753640728.625506) vcan0 244#00000001D2
(1753640728.648274) vcan0 244#000000011E
(1753640728.671669) vcan0 244#0000000139
(1753640728.686679) vcan0 244#0000000102
(1753640728.703264) vcan0 244#0000000156
(1753640728.718814) vcan0 244#00000001CB
(1753640728.733794) vcan0 244#00000001D4
(1753640728.749637) vcan0 244#00000001EF
(1753640728.764850) vcan0 244#000000014C
(1753640728.781108) vcan0 244#0000000125
(1753640728.797044) vcan0 244#0000000130
(1753640728.813221) vcan0 244#00000001E5
(1753640728.843263) vcan0 244#000000014F
(1753640728.859076) vcan0 244#00000001C9
(1753640728.875427) vcan0 244#0000000107
(1753640728.890376) vcan0 244#000000011A
(1753640728.906345) vcan0 244#00000001C7
(1753640728.921038) vcan0 244#00000001D3
(1753640728.936531) vcan0 244#0000000128
(1753640728.951774) vcan0 244#00000001AA
(1753640728.967304) vcan0 244#000000017F
(1753640728.982841) vcan0 244#000000017B
(1753640728.998239) vcan0 244#000000014C
(1753640729.014715) vcan0 244#00000001DA
(1753640729.029461) vcan0 244#00000001C5
(1753640729.029495) vcan0 188#00000000
(1753640729.044718) vcan0 244#0000000137
(1753640729.056310) vcan0 244#000000012C
(1753640729.076265) vcan0 244#0000000151
(1753640729.088018) vcan0 244#000000018E
(1753640729.108051) vcan0 244#00000001B1
(1753640729.125187) vcan0 244#000000018E
(1753640729.139831) vcan0 244#00000001FC
(1753640729.154682) vcan0 244#000000016D
(1753640729.168517) vcan0 244#0000000165
(1753640729.185777) vcan0 244#000000011A
(1753640729.200608) vcan0 244#000000015F
(1753640729.217062) vcan0 244#00000001CC
(1753640729.232310) vcan0 244#000000018C
(1753640729.248118) vcan0 244#000000016C
(1753640729.264547) vcan0 244#0000000135
(1753640729.279588) vcan0 244#00000001CD
(1753640729.295315) vcan0 244#0000000138
(1753640729.311147) vcan0 244#00000001B7
(1753640729.326940) vcan0 244#00000001BA
(1753640729.342282) vcan0 244#000000011D
(1753640729.357769) vcan0 244#000000015A
(1753640729.373675) vcan0 244#00000001F0
(1753640729.388858) vcan0 244#0000000181
(1753640729.401532) vcan0 244#0000000149
(1753640729.420352) vcan0 244#00000001B5
(1753640729.435761) vcan0 244#0000000146
(1753640729.450812) vcan0 244#00000001E4
(1753640729.466563) vcan0 244#00000001CC
(1753640729.482529) vcan0 244#00000001B0
(1753640729.498824) vcan0 244#000000015B
(1753640729.514745) vcan0 244#00000001AD
(1753640729.530017) vcan0 244#0000000184
(1753640729.530100) vcan0 188#00000000
(1753640729.546093) vcan0 244#00000001A4
(1753640729.561106) vcan0 244#000000011A
(1753640729.576689) vcan0 244#00000001AE
(1753640729.592819) vcan0 244#0000000172
(1753640729.612513) vcan0 244#0000000145
(1753640729.624341) vcan0 244#00000001C6
(1753640729.640443) vcan0 244#000000017B
(1753640729.654438) vcan0 244#0000000146
(1753640729.670251) vcan0 244#000000017D
(1753640729.686132) vcan0 244#00000001F6
(1753640729.700891) vcan0 244#000000012E
(1753640729.710966) vcan0 244#0000000124
(1753640729.737428) vcan0 244#00000001FE
(1753640729.762853) vcan0 244#0000000100
(1753640729.778178) vcan0 244#000000018F
(1753640729.793275) vcan0 244#0000000153
(1753640729.809370) vcan0 244#0000000154
(1753640729.824940) vcan0 244#0000000165
(1753640729.840586) vcan0 244#000000018D
(1753640729.856920) vcan0 244#00000001CB
(1753640729.871420) vcan0 244#00000001F1
(1753640729.887421) vcan0 244#00000001AB
(1753640729.902360) vcan0 244#00000001B2
(1753640729.918711) vcan0 244#00000001C2
(1753640729.941859) vcan0 244#000000010D
(1753640729.965560) vcan0 244#0000000132
(1753640729.981218) vcan0 244#00000001AA
(1753640729.996996) vcan0 244#0000000159
(1753640730.027036) vcan0 244#00000001AA
(1753640730.043155) vcan0 244#00000001F3
(1753640730.043274) vcan0 188#00000000
(1753640730.058261) vcan0 244#00000001F9
(1753640730.073585) vcan0 244#000000016B
(1753640730.089833) vcan0 244#00000001AA
(1753640730.104447) vcan0 244#0000000143
(1753640730.121083) vcan0 244#0000000179
(1753640730.135554) vcan0 244#000000018C
(1753640730.147470) vcan0 244#00000001A6
(1753640730.158140) vcan0 244#0000000190
(1753640730.171874) vcan0 244#00000001EE
(1753640730.183686) vcan0 244#000000013F
(1753640730.198544) vcan0 244#00000001A2
(1753640730.213406) vcan0 244#0000000139
(1753640730.229583) vcan0 244#0000000100
(1753640730.244973) vcan0 244#000000013D
(1753640730.260458) vcan0 244#00000001D6
(1753640730.277109) vcan0 244#00000001AB
(1753640730.292212) vcan0 244#00000001AD
(1753640730.307983) vcan0 244#0000000146
(1753640730.323383) vcan0 244#00000001AC
(1753640730.338850) vcan0 244#00000001D6
(1753640730.354109) vcan0 244#00000001AF
(1753640730.368764) vcan0 244#00000001B9
(1753640730.384977) vcan0 244#000000019D
(1753640730.399744) vcan0 244#000000017D
(1753640730.410329) vcan0 244#0000000197
(1753640730.430930) vcan0 244#0000000147
(1753640730.445870) vcan0 244#00000001CB
(1753640730.460433) vcan0 244#00000001DD
(1753640730.476046) vcan0 244#00000001BD
(1753640730.506927) vcan0 244#0000000112
(1753640730.525199) vcan0 244#000000016D
(1753640730.552539) vcan0 244#0000000153
(1753640730.552605) vcan0 188#00000000
(1753640730.568816) vcan0 244#0000000199
(1753640730.584645) vcan0 244#0000000133
(1753640730.600331) vcan0 244#00000001B3
(1753640730.615702) vcan0 244#00000001AE
(1753640730.630798) vcan0 244#000000015B
(1753640730.646050) vcan0 244#0000000176
(1753640730.662072) vcan0 244#0000000159
(1753640730.677746) vcan0 244#0000000167
(1753640730.693430) vcan0 244#0000000151
(1753640730.709931) vcan0 244#0000000198
(1753640730.724207) vcan0 244#000000013C
(1753640730.739095) vcan0 244#000000016E
(1753640730.751409) vcan0 244#00000001F1
(1753640730.769891) vcan0 244#000000012E
(1753640730.786132) vcan0 244#00000001B6
(1753640730.801784) vcan0 244#000000013A
(1753640730.817241) vcan0 244#0000000112
(1753640730.832895) vcan0 244#000000017E
(1753640730.848722) vcan0 244#00000001AE
(1753640730.864526) vcan0 244#00000001DD
(1753640730.878892) vcan0 244#0000000153
(1753640730.895597) vcan0 244#00000001E7
(1753640730.910086) vcan0 244#0000000176
(1753640730.925306) vcan0 244#0000000187
(1753640730.940807) vcan0 244#000000014A
(1753640730.971295) vcan0 244#00000001DD
(1753640730.986830) vcan0 244#0000000101
(1753640731.004649) vcan0 244#0000000124
(1753640731.018181) vcan0 244#000000010B
(1753640731.033680) vcan0 244#000000018A
(1753640731.052955) vcan0 244#0000000114
(1753640731.053054) vcan0 188#00000000
(1753640731.064836) vcan0 244#0000000140
(1753640731.080722) vcan0 244#0000000159
(1753640731.095983) vcan0 244#00000001E3
(1753640731.111201) vcan0 244#000000018B
(1753640731.127816) vcan0 244#00000001D2
(1753640731.142791) vcan0 244#00000001F5
(1753640731.155342) vcan0 244#0000000100
(1753640731.172802) vcan0 244#00000001D5
(1753640731.186488) vcan0 244#0000000162
(1753640731.204518) vcan0 244#0000000135
(1753640731.220515) vcan0 244#00000001AE
(1753640731.236216) vcan0 244#000000016E
(1753640731.252412) vcan0 244#00000001C3
(1753640731.264301) vcan0 244#0000000179
(1753640731.283126) vcan0 244#00000001C0
(1753640731.297462) vcan0 244#000000011A
(1753640731.313331) vcan0 244#00000001A7
(1753640731.323965) vcan0 244#0000000159
(1753640731.342876) vcan0 244#0000000165
(1753640731.359574) vcan0 244#0000000120
(1753640731.374298) vcan0 244#0000000149
(1753640731.390741) vcan0 244#00000001E8
(1753640731.405549) vcan0 244#0000000132
(1753640731.420992) vcan0 244#000000016E
(1753640731.436617) vcan0 244#000000014F
(1753640731.453823) vcan0 244#00000001AD
(1753640731.467480) vcan0 244#000000018B
(1753640731.482981) vcan0 244#0000000110
(1753640731.498431) vcan0 244#00000001D4
(1753640731.510551) vcan0 244#00000001B1
(1753640731.530034) vcan0 244#0000000140
(1753640731.545659) vcan0 244#00000001B2
(1753640731.554535) vcan0 188#00000000
(1753640731.560804) vcan0 244#00000001A8
(1753640731.575813) vcan0 244#00000001C0
(1753640731.592020) vcan0 244#0000000158
(1753640731.604003) vcan0 244#0000000116
(1753640731.617882) vcan0 244#0000000152
(1753640731.639034) vcan0 244#00000001F6
(1753640731.654687) vcan0 244#0000000188
(1753640731.670780) vcan0 244#0000000151
(1753640731.685935) vcan0 244#0000000147
(1753640731.702013) vcan0 244#0000000151
(1753640731.717818) vcan0 244#00000001DB
(1753640731.730346) vcan0 244#0000000126
(1753640731.747779) vcan0 244#00000001E6
(1753640731.759184) vcan0 244#0000000137
(1753640731.771061) vcan0 244#00000001DD
(1753640731.793079) vcan0 244#000000012A
(1753640731.809658) vcan0 244#000000012E
(1753640731.821834) vcan0 244#00000001DE
(1753640731.840327) vcan0 244#0000000167
(1753640731.856127) vcan0 244#0000000114
(1753640731.870746) vcan0 244#00000001E3
(1753640731.887842) vcan0 244#00000001B6
(1753640731.903593) vcan0 244#000000019E
(1753640731.918723) vcan0 244#00000001CF
(1753640731.934930) vcan0 244#000000017F
(1753640731.949759) vcan0 244#00000001C5
(1753640731.965179) vcan0 244#00000001FB
(1753640731.981629) vcan0 244#00000001EF
(1753640731.997300) vcan0 244#0000000113
(1753640732.012600) vcan0 244#00000001D8
(1753640732.023396) vcan0 244#00000001BD
(1753640732.045664) vcan0 244#00000001D7
(1753640732.059517) vcan0 244#0000000134
(1753640732.059595) vcan0 188#00000000
(1753640732.090658) vcan0 244#00000001B3
(1753640732.105201) vcan0 244#000000018A
(1753640732.119613) vcan0 244#00000001A3
(1753640732.132813) vcan0 244#00000001C5
(1753640732.147470) vcan0 244#000000012D
(1753640732.150569) vcan0 19B#8327054FA1
(1753640732.160493) vcan0 244#0000000111
(1753640732.161009) vcan0 19B#15E10FCD2DEDA817
(1753640732.183104) vcan0 244#00000001A9
(1753640732.184739) vcan0 19B#95D2E8
(1753640732.198440) vcan0 244#000000019B
(1753640732.198836) vcan0 19B#22F8
(1753640732.215644) vcan0 19B#FE5405E2
(1753640732.216406) vcan0 244#0000000189
(1753640732.229400) vcan0 19B#2346
(1753640732.229791) vcan0 244#000000016C
(1753640732.245278) vcan0 19B#C6F01071C9CE
(1753640732.246475) vcan0 244#000000011D
(1753640732.259978) vcan0 244#00000001DD
(1753640732.260727) vcan0 19B#CA70
(1753640732.275411) vcan0 244#00000001E6
(1753640732.275708) vcan0 19B#C59A55
(1753640732.291135) vcan0 19B#7AACB520F1E03B09
(1753640732.291133) vcan0 244#0000000164
(1753640732.306994) vcan0 244#0000000127
(1753640732.307564) vcan0 19B#2658C2D5B2751A
(1753640732.323323) vcan0 244#00000001E0
(1753640732.323432) vcan0 19B#68F1352CE7
(1753640732.339129) vcan0 19B#CFD11E9B50FE
(1753640732.339298) vcan0 244#00000001E7
(1753640732.355320) vcan0 244#00000001D8
(1753640732.370585) vcan0 244#00000001DF
(1753640732.371371) vcan0 19B#770BB58A
(1753640732.383589) vcan0 244#0000000139
(1753640732.390104) vcan0 19B#A833411DFD
(1753640732.406189) vcan0 19B#9699
(1753640732.407406) vcan0 244#0000000193
(1753640732.417032) vcan0 19B#E7CA231C35F221
(1753640732.419777) vcan0 244#000000014A
(1753640732.433164) vcan0 19B#BC13
(1753640732.433210) vcan0 244#0000000154
(1753640732.448072) vcan0 19B#E978E5B893CEA4B2
(1753640732.448469) vcan0 244#00000001F4
(1753640732.464444) vcan0 244#00000001E2
(1753640732.465561) vcan0 19B#A7C4328C2AF5
(1753640732.479609) vcan0 244#000000015F
(1753640732.480441) vcan0 19B#696B12D3A87E0FD3
(1753640732.495028) vcan0 244#0000000123
(1753640732.498456) vcan0 19B#45EB4982A70AFA
(1753640732.510322) vcan0 244#00000001D6
(1753640732.511446) vcan0 19B#385C3B4BFA
(1753640732.526305) vcan0 19B#DCA4
(1753640732.526343) vcan0 244#00000001BA
(1753640732.541751) vcan0 244#0000000197
(1753640732.542338) vcan0 19B#4D0C3B4F
(1753640732.558041) vcan0 19B#91F392B42AB09A
(1753640732.558060) vcan0 244#00000001A8
(1753640732.563485) vcan0 188#00000000
(1753640732.573237) vcan0 244#0000000109
(1753640732.573745) vcan0 19B#B9C7C72DA8F540FA
(1753640732.589426) vcan0 19B#BD7242C67A49E8
(1753640732.590526) vcan0 244#00000001BD
(1753640732.604116) vcan0 244#00000001E7
(1753640732.604553) vcan0 19B#0A7D0612BDDF3261
(1753640732.619215) vcan0 244#00000001EA
(1753640732.620552) vcan0 19B#B4FF5030
(1753640732.635004) vcan0 19B#8B308510A9
(1753640732.635318) vcan0 244#0000000106
(1753640732.647249) vcan0 244#0000000114
(1753640732.651618) vcan0 19B#8395CD22
(1753640732.658892) vcan0 244#000000012F
(1753640732.662511) vcan0 19B#55
(1753640732.670448) vcan0 244#000000013D
(1753640732.680660) vcan0 19B#00BB2BF6B0
(1753640732.682063) vcan0 244#000000013A
(1753640732.692723) vcan0 19B#F8EB8BEEB040396F
(1753640732.694108) vcan0 244#00000001B7
(1753640732.712636) vcan0 244#0000000178
(1753640732.712779) vcan0 19B#E012BE
(1753640732.728629) vcan0 19B#425B
(1753640732.728673) vcan0 244#00000001B4
(1753640732.744828) vcan0 244#00000001B9
(1753640732.746266) vcan0 19B#0689FEC6
(1753640732.760396) vcan0 19B#D987CB
(1753640732.760698) vcan0 244#00000001F7
(1753640732.776019) vcan0 244#0000000178
(1753640732.776214) vcan0 19B#13AF85
(1753640732.786914) vcan0 19B#63
(1753640732.788730) vcan0 244#0000000136
(1753640732.805949) vcan0 244#000000017B
(1753640732.806431) vcan0 19B#38BB77816909
(1753640732.818538) vcan0 244#000000016C
(1753640732.819050) vcan0 19B#B3
(1753640732.836309) vcan0 19B#D5EB4F076D07B2
(1753640732.836913) vcan0 244#0000000131
(1753640732.852036) vcan0 19B#95696B5593
(1753640732.852208) vcan0 244#00000001D0
(1753640732.868397) vcan0 19B#0709
(1753640732.868399) vcan0 244#000000019B
(1753640732.883261) vcan0 19B#50F07A
(1753640732.883556) vcan0 244#0000000199
(1753640732.914984) vcan0 19B#CD7FF311
(1753640732.915605) vcan0 244#00000001C1
(1753640732.925960) vcan0 19B#03FEF0D5FC
(1753640732.926842) vcan0 244#00000001AC
(1753640732.937473) vcan0 19B#1436E75312E1BA
(1753640732.938657) vcan0 244#0000000197
(1753640732.950478) vcan0 244#000000013D
(1753640732.952895) vcan0 19B#4C62BDBF2A
(1753640732.961895) vcan0 244#00000001EB
(1753640732.963493) vcan0 19B#607769EA6A691A91
(1753640732.977302) vcan0 244#000000010A
(1753640732.977422) vcan0 19B#B21609330E19B3
(1753640732.993391) vcan0 244#0000000194
(1753640732.993522) vcan0 19B#8F20
(1753640733.009099) vcan0 19B#44C17A
(1753640733.009107) vcan0 244#000000011F
(1753640733.024947) vcan0 244#000000014E
(1753640733.024978) vcan0 19B#09B95D6D1C
(1753640733.035876) vcan0 19B#DCAEB4AD
(1753640733.038677) vcan0 244#00000001B9
(1753640733.056270) vcan0 19B#9BF9A23DA5
(1753640733.056522) vcan0 244#00000001F8
(1753640733.072459) vcan0 19B#BB76177BA8748D
(1753640733.072967) vcan0 244#0000000151
(1753640733.073000) vcan0 188#00000000
(1753640733.087527) vcan0 244#000000013F
(1753640733.088502) vcan0 19B#EA
(1753640733.103294) vcan0 244#000000019C
(1753640733.103368) vcan0 19B#62
(1753640733.118489) vcan0 19B#C3B42A
(1753640733.118649) vcan0 244#0000000103
(1753640733.133987) vcan0 19B#65
(1753640733.134595) vcan0 244#000000018B
(1753640733.150429) vcan0 19B#0FBF
(1753640733.151446) vcan0 244#00000001F5
(1753640733.161129) vcan0 19B#E4
(1753640733.162910) vcan0 244#00000001DA
(1753640733.177899) vcan0 19B#60888C0DAE0FD5
(1753640733.181328) vcan0 244#00000001DE
(1753640733.191508) vcan0 19B#6AC6A4AB66293A58
(1753640733.193234) vcan0 244#0000000109
(1753640733.202617) vcan0 19B#DAB9
(1753640733.207048) vcan0 244#00000001AA
(1753640733.226871) vcan0 19B#6A588CF40D7C
(1753640733.227032) vcan0 244#0000000134
(1753640733.242694) vcan0 244#000000019E
(1753640733.243375) vcan0 19B#D34C
(1753640733.257608) vcan0 244#000000013D
(1753640733.257801) vcan0 19B#B539CF7C72
(1753640733.273953) vcan0 244#0000000187
(1753640733.274064) vcan0 19B#A5F03A9487
(1753640733.289435) vcan0 19B#8111D38A9ECD25
(1753640733.289445) vcan0 244#0000000134
(1753640733.304627) vcan0 19B#5D0B
(1753640733.305069) vcan0 244#0000000145
(1753640733.319479) vcan0 244#0000000154
(1753640733.320315) vcan0 19B#B1
(1753640733.335717) vcan0 244#00000001A2
(1753640733.336213) vcan0 19B#E4388AEE26B2
(1753640733.350579) vcan0 244#00000001FD
(1753640733.352975) vcan0 19B#26FABCCF
(1753640733.361851) vcan0 244#000000018A
(1753640733.364361) vcan0 19B#4FC405C1F090
(1753640733.381881) vcan0 244#000000017F
(1753640733.382025) vcan0 19B#C9649E6AA7E4F7
(1753640733.397738) vcan0 19B#73FCC5D992430B
(1753640733.397885) vcan0 244#00000001C5
(1753640733.412228) vcan0 244#00000001BE
(1753640733.412713) vcan0 19B#5F59B5840914C3
(1753640733.425597) vcan0 19B#14A8CEE45D7D38
(1753640733.425764) vcan0 244#0000000158
(1753640733.443734) vcan0 244#000000014C
(1753640733.444805) vcan0 19B#70510E506754F1DF
(1753640733.459292) vcan0 19B#D31A5A3DAF66
(1753640733.459501) vcan0 244#0000000165
(1753640733.469902) vcan0 19B#DEBA3F9962
(1753640733.470550) vcan0 244#0000000108
(1753640733.482463) vcan0 19B#45
(1753640733.483608) vcan0 244#0000000108
(1753640733.505073) vcan0 244#00000001CF
(1753640733.505924) vcan0 19B#4459
(1753640733.520389) vcan0 19B#D3AC0E4CD2D5169E
(1753640733.520476) vcan0 244#000000015D
(1753640733.536428) vcan0 19B#2E6F18CDE8D09A
(1753640733.537658) vcan0 244#000000011D
(1753640733.551682) vcan0 19B#C55CDC
(1753640733.552145) vcan0 244#000000013C
(1753640733.567425) vcan0 19B#4F632A0B1721
(1753640733.568451) vcan0 244#0000000139
(1753640733.582825) vcan0 19B#3D5854C8
(1753640733.583464) vcan0 244#0000000155
(1753640733.583534) vcan0 188#00000000
(1753640733.598888) vcan0 19B#A256B7
(1753640733.599792) vcan0 244#00000001DC
(1753640733.615066) vcan0 244#00000001E0
(1753640733.616562) vcan0 19B#F828DB3D67F258
(1753640733.631731) vcan0 19B#D6E9FFF4BFCE
(1753640733.632193) vcan0 244#00000001E7
(1753640733.644065) vcan0 244#00000001D2
(1753640733.644869) vcan0 19B#9D90
(1753640733.661010) vcan0 19B#9314
(1753640733.661140) vcan0 244#000000015B
(1753640733.677002) vcan0 19B#CE33F60A
(1753640733.677255) vcan0 244#000000010D
(1753640733.692133) vcan0 244#0000000118
(1753640733.692160) vcan0 19B#639B90D2
(1753640733.707312) vcan0 244#00000001AC
(1753640733.707971) vcan0 19B#0DE459
(1753640733.723470) vcan0 244#00000001C7
(1753640733.733358) vcan0 19B#24
(1753640733.735630) vcan0 244#0000000172
(1753640733.746131) vcan0 19B#2843
(1753640733.749584) vcan0 244#000000014E
(1753640733.769327) vcan0 244#0000000198
(1753640733.771311) vcan0 19B#6E98B641
(1753640733.784906) vcan0 244#0000000154
(1753640733.785045) vcan0 19B#D3C2D65689
(1753640733.800387) vcan0 19B#D1
(1753640733.800383) vcan0 244#000000013F
(1753640733.815917) vcan0 244#00000001D6
(1753640733.816120) vcan0 19B#B1B0
(1753640733.830970) vcan0 19B#12D8
(1753640733.831034) vcan0 244#000000016E
(1753640733.847614) vcan0 19B#37D541
(1753640733.847972) vcan0 244#00000001E6
(1753640733.858660) vcan0 19B#B1FE27101C
(1753640733.863395) vcan0 244#00000001F2
(1753640733.878059) vcan0 19B#29CB6AC1
(1753640733.878407) vcan0 244#00000001CF
(1753640733.893661) vcan0 19B#9B
(1753640733.893858) vcan0 244#00000001C0
(1753640733.908146) vcan0 244#0000000167
(1753640733.909183) vcan0 19B#F292FA607865
(1753640733.923905) vcan0 244#00000001B8
(1753640733.924599) vcan0 19B#7C
(1753640733.940057) vcan0 19B#FD7C800FB7
(1753640733.940304) vcan0 244#0000000140
(1753640733.955968) vcan0 244#000000010C
(1753640733.956063) vcan0 19B#23CA0D
(1753640733.970275) vcan0 244#00000001DD
(1753640733.971248) vcan0 19B#1D7E3C011C77
(1753640733.986373) vcan0 19B#BA88CC59E334
(1753640733.986998) vcan0 244#000000012B
(1753640733.997596) vcan0 19B#7327A7
(1753640734.001004) vcan0 244#0000000106
(1753640734.016842) vcan0 244#0000000197
(1753640734.017064) vcan0 19B#D46D301697
(1753640734.032661) vcan0 244#0000000104
(1753640734.032870) vcan0 19B#C4FB71A80854D227
(1753640734.047408) vcan0 244#000000015C
(1753640734.049250) vcan0 19B#F502
(1753640734.062486) vcan0 244#0000000108
(1753640734.063266) vcan0 19B#1C25A338DB
(1753640734.077801) vcan0 244#000000017E
(1753640734.077838) vcan0 19B#3680
(1753640734.093670) vcan0 244#00000001D9
(1753640734.093705) vcan0 188#00000000
(1753640734.095102) vcan0 19B#25E981
(1753640734.109309) vcan0 244#000000010B
(1753640734.109464) vcan0 19B#87DC4D
(1753640734.124630) vcan0 19B#06B27B
(1753640734.124737) vcan0 244#000000016C
(1753640734.140328) vcan0 19B#56C953330F16573A
(1753640734.140551) vcan0 244#0000000150
(1753640734.156267) vcan0 244#0000000134
(1753640734.156565) vcan0 19B#26ED430E644785
(1753640734.167293) vcan0 19B#B0E6FA22
(1753640734.167500) vcan0 244#00000001A1
(1753640734.178026) vcan0 19B#E6FA5F
(1753640734.178756) vcan0 244#0000000199
(1753640734.202984) vcan0 244#0000000198
(1753640734.203673) vcan0 19B#48ED5528FF38BF
(1753640734.219117) vcan0 244#00000001AF
(1753640734.219322) vcan0 19B#73F94842
(1753640734.234794) vcan0 244#0000000184
(1753640734.236250) vcan0 19B#5A9DCA7AFC
(1753640734.266609) vcan0 19B#DBCE1D05A09050DC
(1753640734.266817) vcan0 244#00000001CD
(1753640734.279411) vcan0 19B#2734
(1753640734.280320) vcan0 244#000000011F
(1753640734.290226) vcan0 19B#24
(1753640734.298771) vcan0 244#00000001E0
(1753640734.301612) vcan0 19B#BD27F5DE68
(1753640734.311954) vcan0 244#00000001BF
(1753640734.313919) vcan0 19B#CDDD7D79
(1753640734.328196) vcan0 19B#128A72808E1EF2
(1753640734.328382) vcan0 244#0000000129
(1753640734.343892) vcan0 19B#58B18C9111BFBEB1
(1753640734.344058) vcan0 244#00000001E2
(1753640734.358832) vcan0 19B#764F3D99531617
(1753640734.358974) vcan0 244#000000014D
(1753640734.375090) vcan0 19B#E0064E
(1753640734.375296) vcan0 244#0000000114
(1753640734.390385) vcan0 244#000000013E
(1753640734.390481) vcan0 19B#D2DCAF7016
(1753640734.406059) vcan0 19B#B195B55E17
(1753640734.407161) vcan0 244#00000001D1
(1753640734.436432) vcan0 19B#013D74
(1753640734.436503) vcan0 244#000000016A
(1753640734.447432) vcan0 19B#B437FCE4E478B7
(1753640734.448572) vcan0 244#000000019B
(1753640734.466890) vcan0 244#000000017A
(1753640734.467921) vcan0 19B#347957
(1753640734.478819) vcan0 244#0000000162
(1753640734.479718) vcan0 19B#7208D9FF
(1753640734.498275) vcan0 244#0000000162
(1753640734.499544) vcan0 19B#0E2EB7AA71BABB3B
(1753640734.513664) vcan0 244#000000019C
(1753640734.514474) vcan0 19B#3CFDD58011B5
(1753640734.529587) vcan0 19B#BFC0B307CD7753
(1753640734.529906) vcan0 244#0000000115
(1753640734.541938) vcan0 244#0000000103
(1753640734.543188) vcan0 19B#7B76FFC3
(1753640734.558630) vcan0 244#0000000114
(1753640734.562809) vcan0 19B#704BEE
(1753640734.570997) vcan0 244#0000000139
(1753640734.573208) vcan0 19B#E3D70E0CBA23E465
(1753640734.590542) vcan0 244#000000019D
(1753640734.591108) vcan0 19B#E98622E0
(1753640734.606170) vcan0 244#000000010A
(1753640734.606231) vcan0 188#00000000
(1753640734.606275) vcan0 19B#A17DF5
(1753640734.622489) vcan0 244#0000000160
(1753640734.622782) vcan0 19B#25CA
(1753640734.637592) vcan0 244#00000001A6
(1753640734.638252) vcan0 19B#124151
(1753640734.653632) vcan0 244#00000001F7
(1753640734.653653) vcan0 19B#8E96AFC0
(1753640734.668861) vcan0 19B#4EA373
(1753640734.668885) vcan0 244#0000000132
(1753640734.683881) vcan0 19B#47D71A934CC0
(1753640734.683958) vcan0 244#00000001E3
(1753640734.699384) vcan0 19B#0F55DC
(1753640734.699406) vcan0 244#00000001AD
(1753640734.710954) vcan0 244#0000000167
(1753640734.715211) vcan0 19B#B6D5E4650824C5
(1753640734.726648) vcan0 244#00000001AE
(1753640734.728476) vcan0 19B#EBE6C033
(1753640734.746377) vcan0 19B#A1
(1753640734.747269) vcan0 244#000000014C
(1753640734.761533) vcan0 19B#F5B2BF530C
(1753640734.761827) vcan0 244#000000014F
(1753640734.776980) vcan0 244#000000016B
(1753640734.777726) vcan0 19B#0162
(1753640734.792604) vcan0 19B#DDEE5BCC811B1D
(1753640734.793088) vcan0 244#00000001C9
(1753640734.804112) vcan0 19B#4B54DAA9CA
(1753640734.807723) vcan0 244#00000001AC
(1753640734.822904) vcan0 244#0000000130
(1753640734.827958) vcan0 19B#3EF2
(1753640734.834182) vcan0 244#00000001C7
(1753640734.838887) vcan0 19B#A2448DFA
(1753640734.855018) vcan0 244#0000000115
(1753640734.856605) vcan0 19B#07A6
(1753640734.870391) vcan0 244#00000001E2
(1753640734.870519) vcan0 19B#5EE2
(1753640734.886023) vcan0 244#0000000121
(1753640734.886868) vcan0 19B#3C
(1753640734.901754) vcan0 244#0000000183
(1753640734.901844) vcan0 19B#E763EA
(1753640734.917077) vcan0 244#0000000168
(1753640734.918541) vcan0 19B#A54011DB13
(1753640734.929132) vcan0 19B#174D6F1EEC
(1753640734.929526) vcan0 244#0000000158
(1753640734.948477) vcan0 244#0000000118
(1753640734.949798) vcan0 19B#59C8845215036F70
(1753640734.964337) vcan0 19B#FCDCB5DD
(1753640734.965225) vcan0 244#00000001E6
(1753640734.976500) vcan0 19B#38
(1753640734.979653) vcan0 244#0000000157
(1753640734.995198) vcan0 19B#508545DD30
(1753640734.996094) vcan0 244#0000000151
(1753640735.008251) vcan0 244#0000000117
(1753640735.009176) vcan0 19B#42
(1753640735.019610) vcan0 19B#93186DCEC660C5CF
(1753640735.023373) vcan0 244#0000000178
(1753640735.040516) vcan0 244#0000000102
(1753640735.041547) vcan0 19B#D1CB6C6607FE
(1753640735.055553) vcan0 244#00000001ED
(1753640735.056089) vcan0 19B#FBEA20
(1753640735.066504) vcan0 19B#6F42F6B3
(1753640735.066497) vcan0 244#00000001B1
(1753640735.086740) vcan0 244#0000000128
(1753640735.090387) vcan0 19B#D35CE3D5CFE234
(1753640735.101955) vcan0 244#00000001EA
(1753640735.102241) vcan0 19B#17
(1753640735.118081) vcan0 244#0000000173
(1753640735.118133) vcan0 188#00000000
(1753640735.118788) vcan0 19B#C4BD91
(1753640735.132863) vcan0 19B#1D8226CC
(1753640735.133160) vcan0 244#00000001BD
(1753640735.148666) vcan0 19B#8D
(1753640735.148691) vcan0 244#0000000138
(1753640735.163363) vcan0 19B#02F1
(1753640735.163517) vcan0 244#0000000172
(1753640735.176142) vcan0 19B#AA1747
(1753640735.177338) vcan0 244#0000000186
(1753640735.188154) vcan0 244#000000013C
(1753640735.189909) vcan0 19B#8E2B
(1753640735.200398) vcan0 244#00000001BD
(1753640735.200975) vcan0 19B#18
(1753640735.226023) vcan0 244#000000016F
(1753640735.226031) vcan0 19B#0DCB83A650E37C
(1753640735.241276) vcan0 244#00000001A8
(1753640735.256661) vcan0 244#00000001C4
(1753640735.257034) vcan0 19B#2590
(1753640735.268906) vcan0 244#0000000154
(1753640735.269927) vcan0 19B#0AF060B3CC25
(1753640735.288116) vcan0 19B#E8F7CA8D89
(1753640735.288171) vcan0 244#00000001F0
(1753640735.303859) vcan0 244#0000000110
(1753640735.304879) vcan0 19B#7466767327F3
(1753640735.318541) vcan0 244#0000000137
(1753640735.318701) vcan0 19B#FC637B2CCA3D
(1753640735.333575) vcan0 19B#24
(1753640735.333909) vcan0 244#0000000122
(1753640735.349885) vcan0 244#000000018F
(1753640735.349923) vcan0 19B#3EBB4F67
(1753640735.366631) vcan0 244#00000001F6
(1753640735.382235) vcan0 244#0000000141
(1753640735.397132) vcan0 244#0000000112
(1753640735.411963) vcan0 244#00000001EB
(1753640735.427354) vcan0 244#00000001F7
(1753640735.428628) vcan0 19B#ACC61CBE2C8608
(1753640735.442650) vcan0 244#0000000195
(1753640735.442796) vcan0 19B#B0DD7C
(1753640735.457866) vcan0 244#000000015F
(1753640735.458165) vcan0 19B#4463F69F
(1753640735.473100) vcan0 244#0000000165
(1753640735.473291) vcan0 19B#CA5C665CE2
(1753640735.488376) vcan0 244#0000000148
(1753640735.488455) vcan0 19B#32B42CC6A54B5A40
(1753640735.503790) vcan0 244#00000001F3
(1753640735.503986) vcan0 19B#71C29C33E6
(1753640735.519307) vcan0 244#0000000183
(1753640735.519351) vcan0 19B#AA979C658081
(1753640735.535035) vcan0 244#0000000151
(1753640735.535229) vcan0 19B#0986DB5DC1060F68
(1753640735.550382) vcan0 244#0000000140
(1753640735.550524) vcan0 19B#3789C2256E5B0185
(1753640735.565394) vcan0 19B#FECB9489
(1753640735.565632) vcan0 244#0000000148
(1753640735.580531) vcan0 19B#3C2E9F
(1753640735.580869) vcan0 244#00000001D9
(1753640735.591261) vcan0 19B#03B924
(1753640735.591756) vcan0 244#00000001D0
(1753640735.611944) vcan0 244#0000000121
(1753640735.612128) vcan0 19B#7764F051A5
(1753640735.627536) vcan0 244#00000001AE
(1753640735.627601) vcan0 188#00000000
(1753640735.632634) vcan0 19B#49
(1753640735.639607) vcan0 244#00000001DE
(1753640735.657387) vcan0 244#0000000143
(1753640735.657753) vcan0 19B#7E19
(1753640735.673531) vcan0 19B#0114ED
(1753640735.673597) vcan0 244#0000000106
(1753640735.689166) vcan0 19B#583062B9
(1753640735.689769) vcan0 244#00000001B7
(1753640735.704451) vcan0 19B#60A7
(1753640735.704685) vcan0 244#00000001CE
(1753640735.720109) vcan0 19B#BE5E
(1753640735.720195) vcan0 244#000000014B
(1753640735.736008) vcan0 19B#4AF9DDAB4E5DC4
(1753640735.736456) vcan0 244#0000000117
(1753640735.751274) vcan0 244#000000013E
(1753640735.752287) vcan0 19B#F9
(1753640735.767188) vcan0 244#0000000157
(1753640735.767527) vcan0 19B#04045B79CD
(1753640735.782764) vcan0 244#0000000144
(1753640735.784246) vcan0 19B#394888
(1753640735.799410) vcan0 19B#6A211FAA5A7A5639
(1753640735.799483) vcan0 244#0000000113
(1753640735.810001) vcan0 244#0000000116
(1753640735.811664) vcan0 19B#01A52CD88DA28628
(1753640735.830201) vcan0 244#0000000170
(1753640735.831556) vcan0 19B#245D8C7F9D3339
(1753640735.845699) vcan0 19B#91
(1753640735.845736) vcan0 244#00000001A6
(1753640735.861385) vcan0 244#0000000175
(1753640735.861527) vcan0 19B#71979249
(1753640735.876993) vcan0 244#000000019F
(1753640735.877414) vcan0 19B#07CDCB
(1753640735.892624) vcan0 244#00000001AD
(1753640735.898021) vcan0 19B#1F
(1753640735.903645) vcan0 244#0000000188
(1753640735.923079) vcan0 244#00000001D0
(1753640735.923239) vcan0 19B#2AA5B7E9C0D7CC
(1753640735.937836) vcan0 19B#C9
(1753640735.937943) vcan0 244#00000001A9
(1753640735.953208) vcan0 244#0000000189
(1753640735.953437) vcan0 19B#0A
(1753640735.969378) vcan0 244#0000000135
(1753640735.969484) vcan0 19B#080F36FDD6F3E6FA
(1753640735.984826) vcan0 244#0000000138
(1753640735.985051) vcan0 19B#25A2B48D99
(1753640736.000214) vcan0 244#0000000127
(1753640736.000392) vcan0 19B#6460
(1753640736.016243) vcan0 19B#8A148110
(1753640736.031143) vcan0 244#0000000123
(1753640736.032177) vcan0 19B#F93AA6F8BA
(1753640736.047065) vcan0 19B#795D
(1753640736.047566) vcan0 244#0000000196
(1753640736.061959) vcan0 19B#46
(1753640736.061961) vcan0 244#000000010C
(1753640736.079039) vcan0 244#0000000118
(1753640736.080522) vcan0 19B#01139977FC
(1753640736.093450) vcan0 244#0000000182
(1753640736.093614) vcan0 19B#D14C63
(1753640736.107878) vcan0 244#00000001CA
(1753640736.108708) vcan0 19B#A4360E1573
(1753640736.120605) vcan0 244#00000001E3
(1753640736.124978) vcan0 19B#800831BBABBFB7
(1753640736.130983) vcan0 244#00000001FC
(1753640736.131096) vcan0 188#00000000
(1753640736.137331) vcan0 19B#9AE7
(1753640736.154370) vcan0 244#0000000129
(1753640736.155081) vcan0 19B#A12C8E394084
(1753640736.170100) vcan0 19B#ADA5DB
(1753640736.170457) vcan0 244#0000000105
(1753640736.181349) vcan0 19B#FC3B67D8C53A
(1753640736.181452) vcan0 244#0000000150
(1753640736.191781) vcan0 19B#B5CD37EA69
(1753640736.193037) vcan0 244#0000000114
(1753640736.214755) vcan0 244#000000016D
(1753640736.215319) vcan0 19B#D06FDE
(1753640736.230866) vcan0 19B#3101A085EE3669DB
(1753640736.231110) vcan0 244#0000000184
(1753640736.245777) vcan0 244#00000001EF
(1753640736.246409) vcan0 19B#DC504863A61BA6
(1753640736.260792) vcan0 244#0000000161
(1753640736.261084) vcan0 19B#F8F7D6A8C9
(1753640736.275988) vcan0 244#0000000165
(1753640736.277162) vcan0 19B#C77F548CC7FEF6
(1753640736.292209) vcan0 244#000000019F
(1753640736.292293) vcan0 19B#817CEF
(1753640736.307560) vcan0 244#0000000194
(1753640736.307744) vcan0 19B#BB1931AF14010AF6
(1753640736.322678) vcan0 244#00000001F1
(1753640736.338584) vcan0 19B#D1
(1753640736.338631) vcan0 244#0000000160
(1753640736.351623) vcan0 19B#EB
(1753640736.351878) vcan0 244#00000001A5
(1753640736.369244) vcan0 244#000000012C
(1753640736.375865) vcan0 19B#FF9A1F
(1753640736.381831) vcan0 244#00000001AB
(1753640736.399389) vcan0 244#0000000148
(1753640736.400228) vcan0 19B#41D578754CDBC47E
(1753640736.414587) vcan0 19B#971EECD20B9CE6
(1753640736.414685) vcan0 244#0000000118
(1753640736.430608) vcan0 244#0000000170
(1753640736.431212) vcan0 19B#1B15166247
(1753640736.441774) vcan0 19B#F6B846B5
(1753640736.442378) vcan0 244#000000016E
(1753640736.461379) vcan0 244#000000016A
(1753640736.461494) vcan0 19B#1FB6109082B2
(1753640736.476731) vcan0 244#0000000145
(1753640736.477398) vcan0 19B#9AFF0F925C
(1753640736.492234) vcan0 244#0000000132
(1753640736.492499) vcan0 19B#A34412
(1753640736.507739) vcan0 244#00000001AA
(1753640736.508136) vcan0 19B#4C
(1753640736.523091) vcan0 244#00000001F7
(1753640736.523453) vcan0 19B#6034A62538
(1753640736.538671) vcan0 244#000000015A
(1753640736.538851) vcan0 19B#F2459250
(1753640736.555042) vcan0 19B#833A91E8194E
(1753640736.555530) vcan0 244#000000015E
(1753640736.570516) vcan0 19B#F60E2980C0
(1753640736.570534) vcan0 244#0000000115
(1753640736.585759) vcan0 19B#4BA8C2D6BFC87F
(1753640736.586030) vcan0 244#0000000141
(1753640736.600401) vcan0 244#000000015D
(1753640736.601009) vcan0 19B#6ECD30983335FE
(1753640736.616021) vcan0 244#000000012D
(1753640736.619175) vcan0 19B#E3CCA36D91
(1753640736.631106) vcan0 244#0000000107
(1753640736.631323) vcan0 19B#93B9903E
(1753640736.646622) vcan0 244#0000000100
(1753640736.646807) vcan0 188#00000000
(1753640736.647285) vcan0 19B#75E4996998
(1753640736.659314) vcan0 19B#FF
(1753640736.661307) vcan0 244#000000019A
(1753640736.677535) vcan0 244#0000000137
(1753640736.677712) vcan0 19B#E4
(1753640736.692735) vcan0 244#0000000109
(1753640736.693421) vcan0 19B#63
(1753640736.708363) vcan0 244#000000013A
(1753640736.708904) vcan0 19B#532C2AC94B
(1753640736.723391) vcan0 244#00000001C4
(1753640736.725353) vcan0 19B#A7208EC5
(1753640736.739221) vcan0 19B#A8D24E99FC
(1753640736.739412) vcan0 244#0000000107
(1753640736.754869) vcan0 244#000000013B
(1753640736.755244) vcan0 19B#AE
(1753640736.771097) vcan0 19B#0C185C6E271CA287
(1753640736.771408) vcan0 244#000000017F
(1753640736.787261) vcan0 19B#1665A5D6E8D01FB2
(1753640736.788496) vcan0 244#00000001B8
(1753640736.803310) vcan0 19B#A7
(1753640736.804681) vcan0 244#0000000148
(1753640736.819078) vcan0 244#000000017D
(1753640736.819153) vcan0 19B#63DD
(1753640736.835089) vcan0 244#0000000179
(1753640736.835515) vcan0 19B#8EB064497095A7FE
(1753640736.850235) vcan0 244#0000000191
(1753640736.853658) vcan0 19B#9ACDBB
(1753640736.862013) vcan0 244#0000000143
(1753640736.866158) vcan0 19B#371789
(1753640736.881218) vcan0 19B#CB305FBEF529DA24
(1753640736.881663) vcan0 244#000000015E
(1753640736.896768) vcan0 19B#3DAF
(1753640736.897010) vcan0 244#00000001C6
(1753640736.912402) vcan0 244#000000014F
(1753640736.922689) vcan0 19B#A5F981CB
(1753640736.926117) vcan0 244#00000001E8
(1753640736.933313) vcan0 19B#AF441C2710
(1753640736.943035) vcan0 244#00000001CC
(1753640736.944176) vcan0 19B#2EB7
(1753640736.958605) vcan0 244#00000001B1
(1753640736.958878) vcan0 19B#1A119FED507E
(1753640736.974308) vcan0 244#0000000136
(1753640736.974394) vcan0 19B#965F
(1753640736.989943) vcan0 244#0000000112
(1753640736.989963) vcan0 19B#CEB11FBA3819
(1753640737.005841) vcan0 244#0000000144
(1753640737.005921) vcan0 19B#303C5F3FC8
(1753640737.021489) vcan0 244#000000012E
(1753640737.021581) vcan0 19B#2A
(1753640737.037419) vcan0 19B#C34744AA62E427
(1753640737.037506) vcan0 244#000000018E
(1753640737.053183) vcan0 244#0000000176
(1753640737.060745) vcan0 19B#87
(1753640737.067319) vcan0 244#000000010C
(1753640737.072241) vcan0 19B#6F521F37
(1753640737.085045) vcan0 19B#CE1D7AC093
(1753640737.085261) vcan0 244#0000000188
(1753640737.100459) vcan0 244#0000000140
(1753640737.100733) vcan0 19B#0F1C8BDDB8A335
(1753640737.116622) vcan0 19B#7D5CF7
(1753640737.117347) vcan0 244#000000012F
(1753640737.127329) vcan0 19B#3EF9A1A561AC53
(1753640737.132570) vcan0 244#0000000124
(1753640737.148172) vcan0 244#0000000177
(1753640737.148219) vcan0 19B#E039D58A1DBA
(1753640737.148285) vcan0 188#00000000
(1753640737.159428) vcan0 244#0000000104
(1753640737.161038) vcan0 19B#56
(1753640737.179076) vcan0 19B#F1F5
(1753640737.184846) vcan0 244#00000001CB
(1753640737.195751) vcan0 244#000000014D
(1753640737.201260) vcan0 19B#C69B765CBD
(1753640737.207528) vcan0 244#00000001E4
(1753640737.211619) vcan0 19B#D5
(1753640737.226212) vcan0 244#00000001EE
(1753640737.226683) vcan0 19B#F880074ED0EF1C
(1753640737.240805) vcan0 19B#0F9EC78A24DD25CF
(1753640737.240856) vcan0 244#00000001A6
(1753640737.252411) vcan0 244#00000001FF
(1753640737.272275) vcan0 19B#576D93
(1753640737.274217) vcan0 244#00000001C2
(1753640737.287560) vcan0 244#000000010A
(1753640737.288622) vcan0 19B#233B4B6082F14A73
(1753640737.303183) vcan0 19B#85B2FF
(1753640737.303420) vcan0 244#0000000198
(1753640737.317948) vcan0 19B#6904DE
(1753640737.318058) vcan0 244#00000001D8
(1753640737.333626) vcan0 19B#19EE4D43567980
(1753640737.334324) vcan0 244#0000000138
(1753640737.349312) vcan0 244#0000000178
(1753640737.349374) vcan0 19B#8339651C
(1753640737.364806) vcan0 244#0000000152
(1753640737.364843) vcan0 19B#EA99
(1753640737.380368) vcan0 244#000000011A
(1753640737.382010) vcan0 19B#235593FE3F0D
(1753640737.395959) vcan0 244#00000001E4
(1753640737.396301) vcan0 19B#D88371
(1753640737.411859) vcan0 244#00000001D7
(1753640737.412049) vcan0 19B#69
(1753640737.426832) vcan0 244#0000000102
(1753640737.427047) vcan0 19B#59107A293EEAF5
(1753640737.442967) vcan0 244#0000000131
(1753640737.446762) vcan0 19B#C8AA87
(1753640737.457868) vcan0 244#00000001AB
(1753640737.458134) vcan0 19B#C410EAE0
(1753640737.469194) vcan0 244#0000000131
(1753640737.489350) vcan0 244#0000000193
(1753640737.490568) vcan0 19B#8C8DDAB4
(1753640737.504006) vcan0 19B#0080E62BC4
(1753640737.504434) vcan0 244#00000001F5
(1753640737.520555) vcan0 244#000000015B
(1753640737.521092) vcan0 19B#ECB12D65
(1753640737.531750) vcan0 19B#0D6A33
(1753640737.536208) vcan0 244#00000001A5
(1753640737.552149) vcan0 244#000000011D
(1753640737.553680) vcan0 19B#DE99EC23F1
(1753640737.566883) vcan0 19B#8CF1DBE9
(1753640737.567054) vcan0 244#00000001FF
(1753640737.583881) vcan0 19B#B86D1D7DC60B32
(1753640737.585201) vcan0 244#0000000182
(1753640737.611139) vcan0 19B#71F3B705
(1753640737.611866) vcan0 244#00000001E9
(1753640737.631109) vcan0 244#0000000140
(1753640737.631193) vcan0 19B#C60692EC0F48
(1753640737.645975) vcan0 244#0000000115
(1753640737.646986) vcan0 19B#27831B
(1753640737.655623) vcan0 188#00000000
(1753640737.676485) vcan0 244#0000000109
(1753640737.676951) vcan0 19B#8EA8D4
(1753640737.688728) vcan0 19B#773BB862
(1753640737.689217) vcan0 244#0000000127
(1753640737.707130) vcan0 244#00000001FF
(1753640737.708538) vcan0 19B#76FDBB
(1753640737.723724) vcan0 19B#55B9585EE874B2
(1753640737.731488) vcan0 244#0000000109
(1753640737.736108) vcan0 19B#9906
(1753640737.742744) vcan0 244#0000000131
(1753640737.748739) vcan0 19B#2282E4
(1753640737.770371) vcan0 244#00000001C1
(1753640737.774462) vcan0 19B#7EE9
(1753640737.785865) vcan0 244#0000000125
(1753640737.786685) vcan0 19B#EDBEBF8BBA27
(1753640737.801970) vcan0 244#0000000191
(1753640737.802017) vcan0 19B#8086
(1753640737.817868) vcan0 19B#D0C448
(1753640737.819003) vcan0 244#0000000169
(1753640737.833994) vcan0 19B#B910253D
(1753640737.834251) vcan0 244#00000001D9
(1753640737.848270) vcan0 19B#41C566
(1753640737.849172) vcan0 244#0000000185
(1753640737.863650) vcan0 244#00000001BD
(1753640737.864256) vcan0 19B#2565
(1753640737.879143) vcan0 244#00000001EE
(1753640737.879516) vcan0 19B#0ADD6E9F1843
(1753640737.890469) vcan0 244#0000000174
(1753640737.891663) vcan0 19B#081F821DFA62B8
(1753640737.909569) vcan0 244#0000000174
(1753640737.910128) vcan0 19B#ED7D
(1753640737.924915) vcan0 19B#80C981B5A13D
(1753640737.925090) vcan0 244#00000001EE
(1753640737.940662) vcan0 244#00000001E7
(1753640737.941548) vcan0 19B#D6168771858F23
(1753640737.953906) vcan0 244#0000000112
(1753640737.955865) vcan0 19B#9065E785
(1753640737.971501) vcan0 244#00000001BC
(1753640737.981391) vcan0 19B#46A7104925046D
(1753640737.987064) vcan0 244#00000001AE
(1753640737.992078) vcan0 19B#3CF38CBE2641C1B0
(1753640737.998941) vcan0 244#000000015F
(1753640738.002521) vcan0 19B#0110AB1A42DF
(1753640738.016922) vcan0 244#00000001EB
(1753640738.018391) vcan0 19B#B7
(1753640738.032045) vcan0 244#00000001BF
(1753640738.038971) vcan0 19B#4E7391A6
(1753640738.044510) vcan0 244#0000000157
(1753640738.049670) vcan0 19B#688BB872D4C016
(1753640738.062959) vcan0 19B#FC7665DCCDE8D607
(1753640738.063027) vcan0 244#000000012D
(1753640738.077673) vcan0 19B#25CF758A
(1753640738.077664) vcan0 244#0000000179
(1753640738.093389) vcan0 244#0000000174
(1753640738.093499) vcan0 19B#E0B4
(1753640738.108558) vcan0 19B#A264C507
(1753640738.108596) vcan0 244#00000001CB
(1753640738.124061) vcan0 19B#BD44
(1753640738.124056) vcan0 244#000000017F
(1753640738.139075) vcan0 244#0000000150
(1753640738.139176) vcan0 19B#B9F4
(1753640738.154984) vcan0 244#000000017D
(1753640738.155967) vcan0 19B#26E350B5A9
(1753640738.170855) vcan0 244#00000001A4
(1753640738.170941) vcan0 188#00000000
(1753640738.171370) vcan0 19B#BDBA
(1753640738.186479) vcan0 19B#86A9E902832A80
(1753640738.188135) vcan0 244#0000000114
(1753640738.199108) vcan0 244#0000000199
(1753640738.204280) vcan0 19B#70CC
(1753640738.215343) vcan0 244#000000014A
(1753640738.216707) vcan0 19B#F502
(1753640738.233031) vcan0 19B#B6C124F3A75B26
(1753640738.233301) vcan0 244#00000001E2
(1753640738.248118) vcan0 244#00000001F6
(1753640738.248366) vcan0 19B#53F25133DA9C5FBB
(1753640738.259972) vcan0 19B#9F66ED
(1753640738.260239) vcan0 244#000000010C
(1753640738.279250) vcan0 19B#C1F109523F62ED
(1753640738.279832) vcan0 244#000000018F
(1753640738.294850) vcan0 19B#6EE9
(1753640738.294875) vcan0 244#00000001FB
(1753640738.309840) vcan0 244#0000000182
(1753640738.309861) vcan0 19B#1CA3CE5BB65E94
(1753640738.324528) vcan0 244#00000001B0
(1753640738.326976) vcan0 19B#6ADE5EC77A1E
(1753640738.340259) vcan0 244#00000001D4
(1753640738.340688) vcan0 19B#3F4285
(1753640738.355978) vcan0 244#000000018C
(1753640738.356427) vcan0 19B#2656
(1753640738.371642) vcan0 19B#EFCBB0
(1753640738.372900) vcan0 244#00000001C0
(1753640738.387068) vcan0 244#00000001E4
(1753640738.387713) vcan0 19B#4494CBF8
(1753640738.402859) vcan0 244#0000000116
(1753640738.404462) vcan0 19B#D3
(1753640738.418501) vcan0 244#00000001C4
(1753640738.419725) vcan0 19B#D4FD
(1753640738.434103) vcan0 19B#AA46FF9B
(1753640738.434350) vcan0 244#0000000113
(1753640738.450240) vcan0 19B#8CD6768459C2
(1753640738.450969) vcan0 244#00000001EF
(1753640738.460956) vcan0 19B#D0DF2441
(1753640738.465760) vcan0 244#000000018E
(1753640738.480683) vcan0 244#000000010F
(1753640738.481072) vcan0 19B#1F55A8663416F8
(1753640738.495908) vcan0 19B#B05C
(1753640738.496453) vcan0 244#00000001F6
(1753640738.510925) vcan0 19B#44
(1753640738.511229) vcan0 244#00000001EA
(1753640738.526349) vcan0 19B#1AE21E5DFBFF
(1753640738.526657) vcan0 244#0000000184
(1753640738.542574) vcan0 244#000000013F
(1753640738.542598) vcan0 19B#36C803F568BE82
(1753640738.558073) vcan0 19B#990B068865
(1753640738.558218) vcan0 244#000000017F
(1753640738.573545) vcan0 19B#5D0BA3
(1753640738.574521) vcan0 244#0000000194
(1753640738.588342) vcan0 244#00000001A8
(1753640738.588371) vcan0 19B#2F2B5197E903
(1753640738.599402) vcan0 19B#B15821BEEC
(1753640738.600840) vcan0 244#000000019A
(1753640738.620898) vcan0 19B#7F13BE3149083C18
(1753640738.621563) vcan0 244#0000000100
(1753640738.637045) vcan0 244#0000000140
(1753640738.637197) vcan0 19B#BF24D83C1ABB21EF
(1753640738.651898) vcan0 19B#32C9EBE54AC1DC
(1753640738.651994) vcan0 244#00000001DB
(1753640738.667936) vcan0 19B#CF976741B3
(1753640738.667928) vcan0 244#00000001B1
(1753640738.682684) vcan0 244#0000000176
(1753640738.682775) vcan0 188#00000000
(1753640738.683673) vcan0 19B#54
(1753640738.698765) vcan0 244#0000000141
(1753640738.698809) vcan0 19B#0D9343D4734F03
(1753640738.714982) vcan0 19B#15F1B30C7313
(1753640738.715109) vcan0 244#00000001AF
(1753640738.730844) vcan0 19B#E35A30DFEC725F
(1753640738.732749) vcan0 244#0000000189
(1753640738.745829) vcan0 244#000000016A
(1753640738.746465) vcan0 19B#26
(1753640738.761822) vcan0 19B#78
(1753640738.762662) vcan0 244#00000001DB
(1753640738.777400) vcan0 244#00000001A0
(1753640738.777515) vcan0 19B#50101DE84AA8
(1753640738.793479) vcan0 244#0000000188
(1753640738.794172) vcan0 19B#990BBE7169
(1753640738.808713) vcan0 244#00000001A7
(1753640738.808846) vcan0 19B#D9ACE7F376A4
(1753640738.823592) vcan0 244#0000000111
(1753640738.823796) vcan0 19B#44CA5C
(1753640738.838988) vcan0 244#0000000130
(1753640738.839095) vcan0 19B#070C84
(1753640738.854278) vcan0 244#0000000184
(1753640738.854689) vcan0 19B#D84C39
(1753640738.866571) vcan0 19B#0B
(1753640738.869500) vcan0 244#0000000111
(1753640738.885486) vcan0 244#0000000162
(1753640738.886634) vcan0 19B#A6F189FE137740AC
(1753640738.900357) vcan0 244#0000000164
(1753640738.900520) vcan0 19B#5C3D6AAFFB8C
(1753640738.915686) vcan0 244#00000001C1
(1753640738.916975) vcan0 19B#280739BF5CBE7D
(1753640738.931358) vcan0 19B#776C0D
(1753640738.931363) vcan0 244#000000016E
(1753640738.946966) vcan0 19B#AB331D2C1231
(1753640738.947226) vcan0 244#000000010D
(1753640738.962546) vcan0 244#00000001ED
(1753640738.962987) vcan0 19B#B354FE2B0C
(1753640738.977640) vcan0 19B#89551EB23E87D1E4
(1753640738.979032) vcan0 244#0000000101
(1753640738.990231) vcan0 19B#90A0
(1753640738.990330) vcan0 244#0000000194
(1753640739.008158) vcan0 19B#4813
(1753640739.024683) vcan0 244#000000018D
(1753640739.025893) vcan0 19B#28E6
(1753640739.036488) vcan0 244#00000001DD
(1753640739.040643) vcan0 19B#18
(1753640739.047406) vcan0 244#000000012F
(1753640739.056844) vcan0 19B#36F2
(1753640739.058503) vcan0 244#00000001BD
(1753640739.071859) vcan0 244#00000001A1
(1753640739.071975) vcan0 19B#04B1306D
(1753640739.087231) vcan0 19B#D988F1E2
(1753640739.087469) vcan0 244#0000000166
(1753640739.102163) vcan0 244#00000001D9
(1753640739.103052) vcan0 19B#83
(1753640739.117889) vcan0 244#000000017F
(1753640739.118156) vcan0 19B#73CE2456
(1753640739.134080) vcan0 19B#6A
(1753640739.134179) vcan0 244#000000015C
(1753640739.149172) vcan0 19B#7A
(1753640739.149167) vcan0 244#0000000126
(1753640739.165250) vcan0 19B#4089C482EE
(1753640739.165338) vcan0 244#0000000110
(1753640739.180765) vcan0 19B#50
(1753640739.180762) vcan0 244#000000013A
(1753640739.196224) vcan0 244#00000001F1
(1753640739.196631) vcan0 188#00000000
(1753640739.196992) vcan0 19B#36FDE5490A
(1753640739.208939) vcan0 19B#531C
(1753640739.213150) vcan0 244#0000000135
(1753640739.227118) vcan0 244#0000000140
(1753640739.227296) vcan0 19B#19616758
(1753640739.242757) vcan0 244#00000001E8
(1753640739.243167) vcan0 19B#4AECD4E2F5D61E4D
(1753640739.258178) vcan0 19B#8D71
(1753640739.258431) vcan0 244#0000000173
(1753640739.273377) vcan0 244#00000001E5
(1753640739.274651) vcan0 19B#DAE892C734
(1753640739.289180) vcan0 244#000000012C
(1753640739.289606) vcan0 19B#D30D
(1753640739.304025) vcan0 19B#E28F73AB4862748C
(1753640739.314330) vcan0 244#00000001A0
(1753640739.316320) vcan0 19B#485319C292CFEC
(1753640739.334974) vcan0 19B#C121D8BDB0
(1753640739.334982) vcan0 244#0000000131
(1753640739.350991) vcan0 19B#474C7D95AE53
(1753640739.351207) vcan0 244#00000001CC
(1753640739.364958) vcan0 244#000000014D
(1753640739.366266) vcan0 19B#A53C1C1C5DA3
(1753640739.380365) vcan0 244#00000001B0
(1753640739.395398) vcan0 244#00000001CC
(1753640739.396738) vcan0 19B#2D7672A5
(1753640739.410972) vcan0 244#000000012B
(1753640739.412106) vcan0 19B#C29E1FBF
(1753640739.426130) vcan0 244#00000001BB
(1753640739.426366) vcan0 19B#58353CFA1760D7
(1753640739.441921) vcan0 244#0000000176
(1753640739.442061) vcan0 19B#828ABEB26C7122
(1753640739.457351) vcan0 244#00000001B5
(1753640739.457426) vcan0 19B#B77EF7042B
(1753640739.472444) vcan0 19B#9E044E48FB23C2
(1753640739.473606) vcan0 244#0000000158
(1753640739.488538) vcan0 244#0000000126
(1753640739.488676) vcan0 19B#BBBEA27C
(1753640739.503320) vcan0 19B#88EC5BEA
(1753640739.503691) vcan0 244#00000001DE
(1753640739.519206) vcan0 19B#3FA37E165134528E
(1753640739.519141) vcan0 244#0000000151
(1753640739.535212) vcan0 244#00000001F2
(1753640739.535356) vcan0 19B#F0AD7E2C4B2F256B
(1753640739.550342) vcan0 244#00000001B7
(1753640739.550559) vcan0 19B#BA82646A
(1753640739.565640) vcan0 244#000000010F
(1753640739.565963) vcan0 19B#44FCCBC1
(1753640739.581395) vcan0 244#0000000174
(1753640739.581464) vcan0 19B#45
(1753640739.598020) vcan0 244#000000012C
(1753640739.599114) vcan0 19B#BAF092
(1753640739.613525) vcan0 244#00000001AA
(1753640739.613616) vcan0 19B#84
(1753640739.629317) vcan0 244#00000001ED
(1753640739.629673) vcan0 19B#3FE5
(1753640739.644531) vcan0 244#000000016F
(1753640739.644925) vcan0 19B#CD480F
(1753640739.660269) vcan0 244#0000000156
(1753640739.661183) vcan0 19B#4D819C
(1753640739.675752) vcan0 19B#26993E
(1753640739.676656) vcan0 244#00000001C4
(1753640739.690989) vcan0 244#000000017C
(1753640739.691061) vcan0 19B#144095
(1753640739.706821) vcan0 244#0000000129
(1753640739.706850) vcan0 188#00000000
(1753640739.707211) vcan0 19B#1E
(1753640739.721625) vcan0 244#0000000121
(1753640739.721904) vcan0 19B#23BABFAF0175
(1753640739.736768) vcan0 244#0000000101
(1753640739.737056) vcan0 19B#6C5DE3C0
(1753640739.752964) vcan0 244#00000001B8
(1753640739.753048) vcan0 19B#A68BB4BA
(1753640739.768805) vcan0 244#0000000122
(1753640739.769016) vcan0 19B#A0D427CF44E0FA
(1753640739.790857) vcan0 244#0000000149
(1753640739.796454) vcan0 19B#19FB1E11D2
(1753640739.802754) vcan0 244#00000001F4
(1753640739.815837) vcan0 244#00000001F0
(1753640739.816393) vcan0 19B#D5E0
(1753640739.826912) vcan0 19B#B7D780700D
(1753640739.835402) vcan0 244#00000001B2
(1753640739.837348) vcan0 19B#02301744BE
(1753640739.847805) vcan0 19B#968EB9
(1753640739.848336) vcan0 244#00000001DE
(1753640739.858758) vcan0 19B#57D45B81A406CFE4
(1753640739.859413) vcan0 244#000000013C
(1753640739.870025) vcan0 19B#B4
(1753640739.873788) vcan0 244#000000019A
(1753640739.892574) vcan0 244#0000000125
(1753640739.893851) vcan0 19B#758752B465C69CB6
(1753640739.908044) vcan0 244#0000000113
(1753640739.908163) vcan0 19B#E9201CB57A5E
(1753640739.924259) vcan0 19B#00DB9383538082
(1753640739.925494) vcan0 244#000000012B
(1753640739.940548) vcan0 244#0000000177
(1753640739.944894) vcan0 19B#4DE6
(1753640739.952971) vcan0 244#0000000188
(1753640739.957224) vcan0 19B#5D3AFA
(1753640739.964304) vcan0 244#00000001EE
(1753640739.968151) vcan0 19B#A2384277E9FA
(1753640739.986160) vcan0 244#0000000171
(1753640739.986771) vcan0 19B#EA94FA51FC3F
(1753640740.000814) vcan0 244#00000001F6
(1753640740.001422) vcan0 19B#42BD1C6C469BD5
(1753640740.016106) vcan0 19B#62
(1753640740.016421) vcan0 244#00000001FC
(1753640740.032164) vcan0 19B#1647A495
(1753640740.032675) vcan0 244#0000000143
(1753640740.047744) vcan0 244#00000001A2
(1753640740.047907) vcan0 19B#3C7F295B2F795C52
(1753640740.063606) vcan0 244#000000018D
(1753640740.063986) vcan0 19B#38A6C497
(1753640740.078533) vcan0 244#000000018C
(1753640740.080048) vcan0 19B#F63B323C1385F0B9
(1753640740.090616) vcan0 19B#3D
(1753640740.090702) vcan0 244#00000001E8
(1753640740.102339) vcan0 19B#25B87963
(1753640740.102806) vcan0 244#0000000116
(1753640740.125434) vcan0 19B#E3CA8BC3FBBA
(1753640740.126115) vcan0 244#0000000116
(1753640740.140321) vcan0 244#00000001DB
(1753640740.140898) vcan0 19B#526A42EE3A72C59B
(1753640740.156210) vcan0 19B#FBE28E893E93EDB5
(1753640740.156616) vcan0 244#00000001F6
(1753640740.170981) vcan0 244#000000012F
(1753640740.171105) vcan0 19B#A9B9B637
(1753640740.187493) vcan0 19B#34BE4A5AF97D
(1753640740.187658) vcan0 244#0000000120
(1753640740.202449) vcan0 244#0000000133
(1753640740.202846) vcan0 19B#4C47AC
(1753640740.208182) vcan0 188#00000000
(1753640740.213795) vcan0 244#000000014C
(1753640740.216373) vcan0 19B#02745721E8225F5F
(1753640740.233252) vcan0 244#00000001F4
(1753640740.233922) vcan0 19B#D3C7E15DF14F
(1753640740.248613) vcan0 244#00000001F2
(1753640740.249229) vcan0 19B#A6FEDB20627A
(1753640740.263659) vcan0 19B#6574
(1753640740.264094) vcan0 244#00000001B2
(1753640740.279249) vcan0 19B#320DD2064B
(1753640740.279480) vcan0 244#0000000104
(1753640740.293933) vcan0 244#00000001FE
(1753640740.294428) vcan0 19B#FF2E3FC4
(1753640740.309257) vcan0 244#0000000180
(1753640740.309826) vcan0 19B#4382A9C8CF9B94
(1753640740.325262) vcan0 244#00000001FF
(1753640740.325642) vcan0 19B#80D8BFA25C1A1B7F
(1753640740.336120) vcan0 244#0000000157
(1753640740.336916) vcan0 19B#0099D25B3D
(1753640740.352024) vcan0 19B#CB906BDD
(1753640740.352749) vcan0 244#00000001B6
(1753640740.371585) vcan0 244#00000001C1
(1753640740.371721) vcan0 19B#E7
(1753640740.386879) vcan0 244#0000000107
(1753640740.387840) vcan0 19B#94AC50D3ED08
(1753640740.402134) vcan0 244#000000017E
(1753640740.402893) vcan0 19B#749AABA340
(1753640740.418426) vcan0 244#0000000154
(1753640740.418492) vcan0 19B#6E79A6AE
(1753640740.433395) vcan0 244#000000012C
(1753640740.434812) vcan0 19B#2FBE06663993AD90
(1753640740.448392) vcan0 244#0000000189
(1753640740.448512) vcan0 19B#AD71E48ED0BBAF
(1753640740.464178) vcan0 19B#6D
(1753640740.464572) vcan0 244#0000000161
(1753640740.478773) vcan0 244#00000001BF
(1753640740.478976) vcan0 19B#E3F603DD9CFB800F
(1753640740.494696) vcan0 244#00000001A1
(1753640740.510101) vcan0 19B#8B
(1753640740.510331) vcan0 244#00000001C2
(1753640740.525742) vcan0 244#000000017D
(1753640740.525823) vcan0 19B#C7747E5B
(1753640740.541016) vcan0 19B#7AF7FDF687926A8F
(1753640740.542554) vcan0 244#0000000149
(1753640740.556562) vcan0 244#00000001EA
(1753640740.556772) vcan0 19B#8B8D
(1753640740.571643) vcan0 244#0000000101
(1753640740.571726) vcan0 19B#8BAA
(1753640740.587110) vcan0 19B#250553EDDE197F
(1753640740.588450) vcan0 244#00000001FC
(1753640740.603245) vcan0 19B#F9C49D49C759C5BA
(1753640740.603364) vcan0 244#000000011D
(1753640740.617972) vcan0 244#00000001F8
(1753640740.619837) vcan0 19B#EEC040
(1753640740.634430) vcan0 19B#C7EAA028
(1753640740.639257) vcan0 244#000000010F
(1753640740.650215) vcan0 19B#50F7B53792
(1753640740.650985) vcan0 244#0000000169
(1753640740.660970) vcan0 19B#FA96
(1753640740.663674) vcan0 244#0000000135
(1753640740.680556) vcan0 244#00000001DF
(1753640740.680727) vcan0 19B#3AFF6580B43CC3C6
(1753640740.696107) vcan0 244#0000000151
(1753640740.696563) vcan0 19B#E6B9BE95D92D95
(1753640740.710455) vcan0 19B#52B255DD086CF6
(1753640740.710618) vcan0 244#0000000145
(1753640740.710650) vcan0 188#00000000
(1753640740.725848) vcan0 244#00000001EE
(1753640740.725931) vcan0 19B#FADFF2
(1753640740.740794) vcan0 19B#2A9B2B
(1753640740.740911) vcan0 244#00000001A0
(1753640740.756738) vcan0 19B#5588
(1753640740.758928) vcan0 244#00000001E7
(1753640740.767329) vcan0 19B#0C4A4566B5
(1753640740.769862) vcan0 244#0000000189
(1753640740.778339) vcan0 19B#8182
(1753640740.787858) vcan0 244#00000001BC
(1753640740.788711) vcan0 19B#B6E4E1685799CA5B
(1753640740.803635) vcan0 244#0000000183
(1753640740.803808) vcan0 19B#78358CAFC50A
(1753640740.818642) vcan0 244#00000001FC
(1753640740.818987) vcan0 19B#B9A639DE
(1753640740.835127) vcan0 19B#8A01F0B565C4
(1753640740.836567) vcan0 244#000000018E
(1753640740.850792) vcan0 244#00000001E0
(1753640740.851384) vcan0 19B#9CB525E5F30CD5
(1753640740.865843) vcan0 244#00000001A1
(1753640740.866058) vcan0 19B#91AD
(1753640740.881729) vcan0 244#0000000127
(1753640740.881954) vcan0 19B#7133AC
(1753640740.897462) vcan0 244#00000001D1
(1753640740.897802) vcan0 19B#4E18E7BF2002
(1753640740.909577) vcan0 244#00000001E9
(1753640740.928261) vcan0 244#00000001CC
(1753640740.928741) vcan0 19B#41A3BD44D6AF9F5B
(1753640740.943420) vcan0 244#000000014F
(1753640740.943954) vcan0 19B#2DACE288E123
(1753640740.958959) vcan0 244#00000001C4
(1753640740.959063) vcan0 19B#CC
(1753640740.974707) vcan0 244#000000010A
(1753640740.975091) vcan0 19B#6F
(1753640740.990233) vcan0 244#000000012D
(1753640740.990258) vcan0 19B#2A9240A5925B28
(1753640741.006349) vcan0 244#00000001DD
(1753640741.006490) vcan0 19B#97A44A9B60
(1753640741.022303) vcan0 244#00000001F0
(1753640741.023685) vcan0 19B#FB527E12
(1753640741.037332) vcan0 19B#BFF3F89E24
(1753640741.037394) vcan0 244#0000000133
(1753640741.052716) vcan0 244#00000001FA
(1753640741.052955) vcan0 19B#A6524ED16CF3
(1753640741.068362) vcan0 244#0000000109
(1753640741.068828) vcan0 19B#83922F71B5
(1753640741.083674) vcan0 244#00000001ED
(1753640741.083786) vcan0 19B#A3E219377A
(1753640741.099405) vcan0 19B#20B4FCCB962B
(1753640741.100304) vcan0 244#000000010E
(1753640741.114854) vcan0 244#00000001B5
(1753640741.115654) vcan0 19B#0DAE32FA4F03049F
(1753640741.130330) vcan0 19B#8762F109
(1753640741.130919) vcan0 244#00000001F2
(1753640741.145402) vcan0 244#00000001E0
(1753640741.146021) vcan0 19B#CC1475D0AB32
(1753640741.161342) vcan0 244#00000001B0
(1753640741.162208) vcan0 19B#4D29
(1753640741.177495) vcan0 244#000000015F
(1753640741.179056) vcan0 19B#6F696C2A3AA059
(1753640741.189441) vcan0 244#00000001C3
(1753640741.190414) vcan0 19B#491E
(1753640741.207879) vcan0 244#000000013A
(1753640741.209102) vcan0 19B#6C
(1753640741.214705) vcan0 188#00000000
(1753640741.220338) vcan0 19B#4BA643389873B4
(1753640741.220670) vcan0 244#000000011B
(1753640741.231335) vcan0 19B#AF
(1753640741.233272) vcan0 244#00000001C6
(1753640741.255316) vcan0 19B#9FF69D14535BF3EA
(1753640741.255756) vcan0 244#00000001E0
(1753640741.271199) vcan0 19B#534CC2BCF99DF4F0
(1753640741.271217) vcan0 244#00000001F3
(1753640741.286370) vcan0 244#00000001E5
(1753640741.286448) vcan0 19B#566E5A6F
(1753640741.301217) vcan0 244#0000000179
(1753640741.301565) vcan0 19B#F3C40244C225
(1753640741.312496) vcan0 19B#B68E27
(1753640741.312728) vcan0 244#000000011D
(1753640741.332367) vcan0 19B#0587318660DE98
(1753640741.332357) vcan0 244#00000001E1
(1753640741.347293) vcan0 244#0000000135
(1753640741.347611) vcan0 19B#B6
(1753640741.362059) vcan0 244#0000000161
(1753640741.362125) vcan0 19B#7CC87B
(1753640741.377993) vcan0 244#00000001CF
(1753640741.378405) vcan0 19B#A0F01F48789D8A
(1753640741.393553) vcan0 19B#BBEC58
(1753640741.393599) vcan0 244#000000013A
(1753640741.409322) vcan0 244#00000001CA
(1753640741.410017) vcan0 19B#8821A9E1A63A
(1753640741.425372) vcan0 19B#82B37056C12385
(1753640741.425581) vcan0 244#000000013A
(1753640741.440151) vcan0 19B#B87AB31D495C46D9
(1753640741.440155) vcan0 244#000000019B
(1753640741.455530) vcan0 19B#56506EA01EB0DAE7
(1753640741.459093) vcan0 244#00000001F0
(1753640741.470949) vcan0 244#0000000104
(1753640741.471709) vcan0 19B#4CCB84BEAFA37F
(1753640741.486370) vcan0 244#0000000194
(1753640741.486869) vcan0 19B#DFD079
(1753640741.501890) vcan0 244#00000001FD
(1753640741.502595) vcan0 19B#8F107E7347A92869
(1753640741.517059) vcan0 19B#7B4EF1885BFF9E94
(1753640741.517236) vcan0 244#00000001D4
(1753640741.533055) vcan0 19B#F251
(1753640741.533072) vcan0 244#00000001AA
(1753640741.547912) vcan0 19B#4617
(1753640741.548996) vcan0 244#00000001A3
(1753640741.559036) vcan0 19B#4FD362AD
(1753640741.564224) vcan0 244#00000001DE
(1753640741.578440) vcan0 244#0000000155
(1753640741.578465) vcan0 19B#52285E2111
(1753640741.594943) vcan0 19B#1F2059
(1753640741.595151) vcan0 244#0000000174
(1753640741.610139) vcan0 19B#65C76D
(1753640741.610338) vcan0 244#00000001EC
(1753640741.624963) vcan0 244#0000000151
(1753640741.626101) vcan0 19B#004AFF91C6BF
(1753640741.641017) vcan0 244#00000001C0
(1753640741.641211) vcan0 19B#7B1C89
(1753640741.656013) vcan0 244#00000001E9
(1753640741.656281) vcan0 19B#3F7180C5B16F6931
(1753640741.672049) vcan0 244#0000000130
(1753640741.673052) vcan0 19B#A94F533A9F
(1753640741.687170) vcan0 244#0000000117
(1753640741.687603) vcan0 19B#2A5C1C04341F
(1753640741.702309) vcan0 19B#91859C05E27FC168
(1753640741.702424) vcan0 244#0000000120
(1753640741.717812) vcan0 19B#4D58E6
(1753640741.718045) vcan0 244#0000000193
(1753640741.718079) vcan0 188#00000000
(1753640741.733658) vcan0 19B#BD1A30D7109D13
(1753640741.733785) vcan0 244#0000000194
(1753640741.748866) vcan0 244#00000001B1
(1753640741.749831) vcan0 19B#F570082B035D33
(1753640741.764393) vcan0 244#0000000114
(1753640741.765560) vcan0 19B#89
(1753640741.780422) vcan0 244#00000001A9
(1753640741.781072) vcan0 19B#B367
(1753640741.796072) vcan0 244#00000001EA
(1753640741.796205) vcan0 19B#E7B7F7EEDC
(1753640741.811974) vcan0 244#0000000112
(1753640741.813008) vcan0 19B#396A6709
(1753640741.823446) vcan0 244#00000001FB
(1753640741.825372) vcan0 19B#79
(1753640741.842836) vcan0 19B#4FE82F1153
(1753640741.843508) vcan0 244#00000001E8
(1753640741.857833) vcan0 244#000000017E
(1753640741.857951) vcan0 19B#443E09503E707B4A
(1753640741.872896) vcan0 244#00000001D2
(1753640741.873077) vcan0 19B#D7F41A41
(1753640741.888921) vcan0 244#00000001CF
(1753640741.889172) vcan0 19B#B053FB009D
(1753640741.903756) vcan0 244#0000000154
(1753640741.904025) vcan0 19B#137C8EE198
(1753640741.919974) vcan0 244#000000018A
(1753640741.920009) vcan0 19B#46
(1753640741.935783) vcan0 244#000000015B
(1753640741.936112) vcan0 19B#7FFFB4
(1753640741.946548) vcan0 19B#EC063B
(1753640741.948556) vcan0 244#0000000175
(1753640741.966327) vcan0 19B#78AF38F995
(1753640741.966331) vcan0 244#0000000139
(1753640741.981305) vcan0 19B#61DEFCDAEA45CC4C
(1753640741.981558) vcan0 244#0000000175
(1753640741.997378) vcan0 19B#847B74A3
(1753640741.998320) vcan0 244#0000000165
(1753640742.012821) vcan0 19B#7BE4
(1753640742.012941) vcan0 244#0000000181
(1753640742.027872) vcan0 244#00000001B4
(1753640742.028188) vcan0 19B#9629863150BC
(1753640742.042981) vcan0 244#00000001DF
(1753640742.043067) vcan0 19B#B07EA7515F
(1753640742.058206) vcan0 244#0000000173
(1753640742.058273) vcan0 19B#A0
(1753640742.073520) vcan0 244#0000000143
(1753640742.073747) vcan0 19B#B3
(1753640742.089063) vcan0 19B#85D0E1A618DF24D2
(1753640742.090239) vcan0 244#00000001E8
(1753640742.101428) vcan0 19B#9FFB51D2EF46
(1753640742.101841) vcan0 244#00000001E0
(1753640742.120377) vcan0 244#00000001A1
(1753640742.121016) vcan0 19B#8BABF4
(1753640742.136968) vcan0 244#000000016E
(1753640742.137695) vcan0 19B#F39FD1BF5E21CC37
(1753640742.151929) vcan0 19B#3B57F979C3BF90A3
(1753640742.152900) vcan0 244#00000001AE
(1753640742.167040) vcan0 244#0000000154
(1753640742.167158) vcan0 19B#906858B2
(1753640742.182602) vcan0 244#00000001AA
(1753640742.183959) vcan0 19B#DF8D6A92D8DE
(1753640742.198340) vcan0 19B#E72F5F5A1C
(1753640742.198762) vcan0 244#00000001DD
(1753640742.213931) vcan0 244#0000000104
(1753640742.214101) vcan0 19B#770E953B
(1753640742.219505) vcan0 188#00000000
(1753640742.224589) vcan0 19B#9F05D7C6A5
(1753640742.227269) vcan0 244#00000001F7
(1753640742.236024) vcan0 19B#FDEB
(1753640742.240042) vcan0 244#000000010E
(1753640742.260994) vcan0 19B#3A5A46EB1B8871
(1753640742.261043) vcan0 244#00000001C9
(1753640742.275691) vcan0 244#000000017F
(1753640742.275749) vcan0 19B#1B
(1753640742.291947) vcan0 244#00000001BD
(1753640742.292469) vcan0 19B#666D
(1753640742.307124) vcan0 244#0000000160
(1753640742.307201) vcan0 19B#865E66A0D8
(1753640742.322613) vcan0 244#0000000183
(1753640742.322883) vcan0 19B#1E288887ACBFF6
(1753640742.338382) vcan0 19B#7F84
(1753640742.338529) vcan0 244#00000001D7
(1753640742.351262) vcan0 244#00000001D0
(1753640742.351416) vcan0 19B#B072A739
(1753640742.362693) vcan0 19B#C940FD246534FA
(1753640742.369443) vcan0 244#00000001EE
(1753640742.373220) vcan0 19B#6175C8F951
(1753640742.385904) vcan0 19B#05F94A70
(1753640742.386205) vcan0 244#0000000147
(1753640742.400758) vcan0 19B#CEB23E0604CC
(1753640742.401249) vcan0 244#0000000176
(1753640742.416203) vcan0 19B#C0B1E660
(1753640742.417017) vcan0 244#0000000167
(1753640742.426586) vcan0 19B#A41C
(1753640742.431327) vcan0 244#0000000158
(1753640742.447582) vcan0 244#000000014B
(1753640742.447688) vcan0 19B#AA500E6DC9
(1753640742.463008) vcan0 19B#47647B
(1753640742.463109) vcan0 244#0000000178
(1753640742.478305) vcan0 244#0000000159
(1753640742.480009) vcan0 19B#2BADB496
(1753640742.493273) vcan0 19B#91BD
(1753640742.493495) vcan0 244#0000000169
(1753640742.524855) vcan0 244#0000000148
(1753640742.525088) vcan0 19B#67B71F68
(1753640742.540177) vcan0 244#0000000155
(1753640742.540533) vcan0 19B#F6AAF7A39A
(1753640742.556592) vcan0 244#00000001F7
(1753640742.557936) vcan0 19B#32BEABC55E1C1E
(1753640742.572585) vcan0 19B#6A
(1753640742.572773) vcan0 244#0000000128
(1753640742.588166) vcan0 244#00000001DA
(1753640742.588228) vcan0 19B#2498D18081
(1753640742.603246) vcan0 244#0000000175
(1753640742.603527) vcan0 19B#F38744132C577980
(1753640742.618815) vcan0 244#00000001E5
(1753640742.624632) vcan0 19B#F75D78BF
(1753640742.633717) vcan0 244#0000000164
(1753640742.636724) vcan0 19B#26
(1753640742.649996) vcan0 244#000000013E
(1753640742.650434) vcan0 19B#794627478E
(1753640742.665425) vcan0 19B#A6611D9D7BB60D
(1753640742.665420) vcan0 244#0000000155
(1753640742.679780) vcan0 244#00000001AA
(1753640742.680593) vcan0 19B#553BFE530E5461
(1753640742.695193) vcan0 244#00000001B8
(1753640742.696123) vcan0 19B#0CFA
(1753640742.710328) vcan0 19B#EB13
(1753640742.710316) vcan0 244#00000001F6
(1753640742.725262) vcan0 244#000000013E
(1753640742.725301) vcan0 188#00000000
(1753640742.725803) vcan0 19B#DBFB0EB662FBF997
(1753640742.740457) vcan0 19B#9C71B5AD4FCC09A2
(1753640742.740460) vcan0 244#00000001E2
(1753640742.755985) vcan0 19B#69E2AEC98A
(1753640742.756210) vcan0 244#00000001DC
(1753640742.771628) vcan0 19B#8E394B693B1331EF
(1753640742.771682) vcan0 244#00000001D9
(1753640742.787009) vcan0 244#000000013B
(1753640742.787068) vcan0 19B#8F6424
(1753640742.802060) vcan0 244#00000001D9
(1753640742.802346) vcan0 19B#E46DAF9AD7BB5D84
(1753640742.817732) vcan0 244#00000001F8
(1753640742.817897) vcan0 19B#D5F53E45
(1753640742.833158) vcan0 244#000000012E
(1753640742.833623) vcan0 19B#C3B33059AAF9
(1753640742.847995) vcan0 244#00000001C5
(1753640742.848390) vcan0 19B#4B97
(1753640742.864289) vcan0 19B#D98CA90773
(1753640742.864689) vcan0 244#0000000103
(1753640742.879283) vcan0 19B#CDD00949DC770A01
(1753640742.879696) vcan0 244#0000000112
(1753640742.890733) vcan0 19B#0599
(1753640742.901682) vcan0 244#00000001D7
(1753640742.905242) vcan0 19B#9FAFBF
(1753640742.914007) vcan0 244#0000000106
(1753640742.917673) vcan0 19B#80
(1753640742.924772) vcan0 244#0000000187
(1753640742.928330) vcan0 19B#AD90
(1753640742.940308) vcan0 19B#01525B991C3941
(1753640742.940491) vcan0 244#00000001C0
(1753640742.955395) vcan0 19B#B2BE0B3D4E0F1D8B
(1753640742.955524) vcan0 244#000000019A
(1753640742.970934) vcan0 244#000000017E
(1753640742.971317) vcan0 19B#E51DD4D05E83
(1753640742.986661) vcan0 244#0000000144
(1753640742.986798) vcan0 19B#2B59F227
(1753640743.002488) vcan0 244#000000017F
(1753640743.003078) vcan0 19B#855D
(1753640743.019495) vcan0 19B#4BFCD6B3193E
(1753640743.019684) vcan0 244#0000000170
(1753640743.034735) vcan0 19B#A717
(1753640743.034927) vcan0 244#0000000158
(1753640743.050102) vcan0 19B#F17E
(1753640743.050239) vcan0 244#00000001C4
(1753640743.065935) vcan0 19B#C55A
(1753640743.066125) vcan0 244#0000000166
(1753640743.081520) vcan0 244#00000001E9
(1753640743.081721) vcan0 19B#5176EB45FA
(1753640743.097634) vcan0 19B#4D
(1753640743.097782) vcan0 244#00000001C5
(1753640743.113371) vcan0 244#0000000166
(1753640743.113844) vcan0 19B#61
(1753640743.128276) vcan0 19B#86FA89D82F
(1753640743.128324) vcan0 244#00000001C4
(1753640743.144442) vcan0 19B#AC347118
(1753640743.144616) vcan0 244#00000001B8
(1753640743.159736) vcan0 244#00000001AC
(1753640743.165226) vcan0 19B#F808393AB15F
(1753640743.172384) vcan0 244#0000000198
(1753640743.175994) vcan0 19B#C9
(1753640743.190837) vcan0 19B#91
(1753640743.191200) vcan0 244#00000001CA
(1753640743.206475) vcan0 19B#BD84C58EA4535E03
(1753640743.206690) vcan0 244#0000000106
(1753640743.222273) vcan0 244#0000000117
(1753640743.224022) vcan0 19B#2FBE5AD61B220E9C
(1753640743.227574) vcan0 188#00000000
(1753640743.236110) vcan0 244#0000000142
(1753640743.236606) vcan0 19B#58DBB4F2041A
(1753640743.247103) vcan0 19B#0E
(1753640743.249874) vcan0 244#000000017C
(1753640743.268793) vcan0 19B#ED38A7
(1753640743.269820) vcan0 244#00000001EF
(1753640743.285309) vcan0 244#0000000138
(1753640743.285547) vcan0 19B#FA33
(1753640743.296163) vcan0 19B#6C70434D38
(1753640743.299583) vcan0 244#0000000191
(1753640743.316334) vcan0 19B#40DD
(1753640743.316328) vcan0 244#00000001BB
(1753640743.331795) vcan0 19B#537D042E48
(1753640743.331858) vcan0 244#000000019A
(1753640743.347571) vcan0 244#0000000130
(1753640743.348187) vcan0 19B#CBD0A777F66D9F
(1753640743.362982) vcan0 244#00000001E9
(1753640743.363417) vcan0 19B#220F57C677
(1753640743.377796) vcan0 19B#33
(1753640743.378395) vcan0 244#000000018E
(1753640743.393189) vcan0 244#0000000152
(1753640743.393793) vcan0 19B#ADDCAF57ED98
(1753640743.409015) vcan0 244#000000010D
(1753640743.409526) vcan0 19B#5D
(1753640743.424983) vcan0 19B#5C4D04
(1753640743.425168) vcan0 244#00000001EA
(1753640743.435599) vcan0 19B#F067
(1753640743.436588) vcan0 244#0000000189
(1753640743.455003) vcan0 244#00000001A7
(1753640743.455183) vcan0 19B#CEF508
(1753640743.470231) vcan0 244#000000014A
(1753640743.471741) vcan0 19B#D01835CD
(1753640743.486330) vcan0 19B#152B3F4C2F
(1753640743.486576) vcan0 244#00000001A5
(1753640743.501667) vcan0 244#0000000132
(1753640743.501821) vcan0 19B#A98F31
(1753640743.517208) vcan0 19B#26319AA6B3
(1753640743.517387) vcan0 244#000000013F
(1753640743.532465) vcan0 244#0000000185
(1753640743.532659) vcan0 19B#ACB12081B2
(1753640743.547999) vcan0 244#0000000134
(1753640743.548741) vcan0 19B#8AB4A0EC04
(1753640743.560696) vcan0 19B#3B4747B6
(1753640743.562407) vcan0 244#00000001C5
(1753640743.579414) vcan0 19B#43FBE9EE5BEC
(1753640743.579616) vcan0 244#00000001E6
(1753640743.594297) vcan0 244#00000001B6
(1753640743.594437) vcan0 19B#4CAF359C4EB321C0
(1753640743.609519) vcan0 244#0000000125
(1753640743.609904) vcan0 19B#67546EB7
(1753640743.625294) vcan0 244#000000013A
(1753640743.626456) vcan0 19B#1E2466
(1753640743.641515) vcan0 244#000000017E
(1753640743.642168) vcan0 19B#2070480B5585D6B3
(1753640743.657195) vcan0 244#000000015A
(1753640743.657331) vcan0 19B#2525
(1753640743.672864) vcan0 244#0000000121
(1753640743.673473) vcan0 19B#767C861DCC
(1753640743.688504) vcan0 244#0000000121
(1753640743.688858) vcan0 19B#1894
(1753640743.699627) vcan0 19B#3A
(1753640743.701439) vcan0 244#000000018E
(1753640743.718223) vcan0 244#0000000180
(1753640743.718264) vcan0 19B#624D19B5
(1753640743.733855) vcan0 19B#94135F336E7D
(1753640743.733949) vcan0 244#00000001B9
(1753640743.733973) vcan0 188#00000000
(1753640743.749483) vcan0 19B#CAA1
(1753640743.749574) vcan0 244#0000000119
(1753640743.763639) vcan0 244#0000000154
(1753640743.763781) vcan0 19B#8FBFF050FDFF84
(1753640743.780697) vcan0 244#00000001E6
(1753640743.780978) vcan0 19B#CA6451
(1753640743.796147) vcan0 19B#75
(1753640743.796704) vcan0 244#00000001F0
(1753640743.808237) vcan0 19B#557815F2
(1753640743.808528) vcan0 244#000000018C
(1753640743.821224) vcan0 19B#9B
(1753640743.821511) vcan0 244#0000000132
(1753640743.842385) vcan0 19B#E9081EBD
(1753640743.842739) vcan0 244#00000001F6
(1753640743.857840) vcan0 244#0000000135
(1753640743.857958) vcan0 19B#4B2ADD49DA
(1753640743.872963) vcan0 244#0000000121
(1753640743.873098) vcan0 19B#A8CA04FAB0BF5A
(1753640743.887667) vcan0 244#000000011F
(1753640743.887900) vcan0 19B#5B
(1753640743.903266) vcan0 19B#3A4B
(1753640743.903477) vcan0 244#000000013B
(1753640743.918750) vcan0 244#0000000147
(1753640743.920121) vcan0 19B#07F1B66F08D20E
(1753640743.934293) vcan0 244#0000000162
(1753640743.934520) vcan0 19B#17E6699B
(1753640743.950025) vcan0 244#0000000122
(1753640743.951131) vcan0 19B#3ACD
(1753640743.965366) vcan0 19B#CF45618A05BACD7F
(1753640743.965559) vcan0 244#0000000108
(1753640743.980709) vcan0 19B#9E021287713E33
(1753640743.981217) vcan0 244#0000000131
(1753640743.996286) vcan0 244#00000001FF
(1753640743.997094) vcan0 19B#43C3
(1753640744.012448) vcan0 244#0000000129
(1753640744.012855) vcan0 19B#65FD
(1753640744.028003) vcan0 244#0000000182
(1753640744.029856) vcan0 19B#8F
(1753640744.043390) vcan0 19B#3F280B9F
(1753640744.043626) vcan0 244#00000001E0
(1753640744.058619) vcan0 19B#09D1DD48CEAD
(1753640744.059201) vcan0 244#00000001AC
(1753640744.073954) vcan0 244#00000001D4
(1753640744.074104) vcan0 19B#E362516D
(1753640744.085406) vcan0 244#00000001A3
(1753640744.105013) vcan0 244#0000000103
(1753640744.105187) vcan0 19B#B65A76499B35
(1753640744.120917) vcan0 19B#C6936A
(1753640744.121038) vcan0 244#00000001EE
(1753640744.136532) vcan0 19B#4E37915D3489
(1753640744.136640) vcan0 244#0000000119
(1753640744.152765) vcan0 244#0000000140
(1753640744.152990) vcan0 19B#4E068E888327
(1753640744.167822) vcan0 244#00000001AC
(1753640744.167842) vcan0 19B#2F154902429F0E
(1753640744.183129) vcan0 244#00000001C3
(1753640744.183192) vcan0 19B#49DF
(1753640744.197975) vcan0 244#000000015C
(1753640744.203452) vcan0 19B#4607
(1753640744.214211) vcan0 19B#F3CD
(1753640744.214332) vcan0 244#0000000182
(1753640744.225202) vcan0 19B#37AE88
(1753640744.227291) vcan0 244#0000000179
(1753640744.238213) vcan0 19B#E9E9F41DFD37
(1753640744.238395) vcan0 244#000000014E
(1753640744.244111) vcan0 188#00000000
(1753640744.251041) vcan0 19B#8C0D73DB2130
(1753640744.251222) vcan0 244#0000000104
(1753640744.276238) vcan0 19B#86D188F3CC
(1753640744.276386) vcan0 244#0000000186
(1753640744.291622) vcan0 244#00000001F6
(1753640744.291848) vcan0 19B#8C5381FC7D92A689
(1753640744.307629) vcan0 19B#739B
(1753640744.308055) vcan0 244#0000000153
(1753640744.323413) vcan0 244#0000000198
(1753640744.324075) vcan0 19B#535DF43ED400AD
(1753640744.338921) vcan0 244#00000001C8
(1753640744.338993) vcan0 19B#91D0
(1753640744.351620) vcan0 244#0000000111
(1753640744.355802) vcan0 19B#A21A5F4854B583FF
(1753640744.370982) vcan0 244#0000000153
(1753640744.372082) vcan0 19B#26C1
(1753640744.386312) vcan0 19B#9EA7F6AF
(1753640744.386751) vcan0 244#00000001A0
(1753640744.402523) vcan0 244#00000001F5
(1753640744.402803) vcan0 19B#BC4258487F
(1753640744.418131) vcan0 244#00000001D2
(1753640744.418431) vcan0 19B#52CBC9E4869D
(1753640744.434254) vcan0 19B#E6DA20BFE088
(1753640744.434399) vcan0 244#00000001DE
(1753640744.449070) vcan0 19B#0090B2AC0FE5
(1753640744.450305) vcan0 244#000000019A
(1753640744.465369) vcan0 244#00000001A0
(1753640744.466121) vcan0 19B#8EB8BBFDDE0D6D7D
(1753640744.477450) vcan0 244#00000001F9
(1753640744.477622) vcan0 19B#584165
(1753640744.502035) vcan0 244#00000001DF
(1753640744.502095) vcan0 19B#9B93621D2823
(1753640744.525900) vcan0 244#00000001BE
(1753640744.526865) vcan0 19B#4E0E067654C3FF
(1753640744.541590) vcan0 19B#FA610B3A5D7AFB95
(1753640744.541909) vcan0 244#0000000177
(1753640744.557205) vcan0 244#0000000128
(1753640744.558039) vcan0 19B#DF83BE76
(1753640744.572409) vcan0 244#00000001AE
(1753640744.572869) vcan0 19B#FEE33FC694BB
(1753640744.587821) vcan0 19B#3E95D0284351
(1753640744.587866) vcan0 244#0000000135
(1753640744.603831) vcan0 19B#82DC9F871CC8B2
(1753640744.610098) vcan0 244#0000000147
(1753640744.635380) vcan0 244#0000000138
(1753640744.635414) vcan0 19B#802B
(1753640744.650479) vcan0 19B#072F6137
(1753640744.650655) vcan0 244#00000001EB
(1753640744.666712) vcan0 19B#30F1FF
(1753640744.667062) vcan0 244#0000000124
(1753640744.681709) vcan0 244#0000000101
(1753640744.682125) vcan0 19B#AD628B
(1753640744.697015) vcan0 244#00000001CA
(1753640744.697430) vcan0 19B#7166
(1753640744.712481) vcan0 244#000000011D
(1753640744.712489) vcan0 19B#00
(1753640744.727821) vcan0 19B#3C3CDE696D5E0F
(1753640744.728074) vcan0 244#000000011F
(1753640744.738517) vcan0 19B#2D8545108E3F
(1753640744.743221) vcan0 244#00000001DF
(1753640744.743245) vcan0 188#00000000
(1753640744.750535) vcan0 19B#62A14AAD
(1753640744.758590) vcan0 244#0000000188
(1753640744.761729) vcan0 19B#7C9E0E987149F38F
(1753640744.773954) vcan0 244#000000013F
(1753640744.776100) vcan0 19B#A2F647D364CF
(1753640744.786949) vcan0 19B#12E0197805E35A
(1753640744.788059) vcan0 244#0000000181
(1753640744.805255) vcan0 244#000000019A
(1753640744.805383) vcan0 19B#28DEF91430
(1753640744.820858) vcan0 19B#1B9A
(1753640744.820864) vcan0 244#000000012F
(1753640744.836230) vcan0 244#0000000134
(1753640744.836343) vcan0 19B#B20A21DC425B13
(1753640744.851718) vcan0 244#000000017E
(1753640744.851869) vcan0 19B#EF1E
(1753640744.867861) vcan0 19B#DF06692768573091
(1753640744.868103) vcan0 244#00000001DE
(1753640744.878530) vcan0 19B#F51C53FA
(1753640744.880214) vcan0 244#0000000124
(1753640744.898858) vcan0 19B#60D977E2F2D0
(1753640744.899319) vcan0 244#0000000139
(1753640744.914206) vcan0 19B#91
(1753640744.914655) vcan0 244#0000000170
(1753640744.929114) vcan0 244#0000000193
(1753640744.929807) vcan0 19B#A32B
(1753640744.945178) vcan0 244#00000001B5
(1753640744.945338) vcan0 19B#5889
(1753640744.960875) vcan0 244#0000000126
(1753640744.960920) vcan0 19B#886C45541A9F
(1753640744.976251) vcan0 19B#C6
(1753640744.976252) vcan0 244#000000014E
(1753640744.991348) vcan0 244#000000014A
(1753640744.991444) vcan0 19B#E4
(1753640745.006914) vcan0 244#00000001A2
(1753640745.007005) vcan0 19B#88
(1753640745.022168) vcan0 19B#0615848F1662B0
(1753640745.022577) vcan0 244#0000000128
(1753640745.037290) vcan0 244#000000015D
(1753640745.037610) vcan0 19B#E6912D1CF99BF4B8
(1753640745.053311) vcan0 19B#9DA00FE3BACF
(1753640745.053787) vcan0 244#00000001E6
(1753640745.068549) vcan0 244#0000000173
(1753640745.068941) vcan0 19B#B38DFA
(1753640745.084218) vcan0 244#00000001AF
(1753640745.084375) vcan0 19B#E8FDD29D1AB6A108
(1753640745.099723) vcan0 19B#BD79C2E6EE2B
(1753640745.099860) vcan0 244#00000001CA
(1753640745.115414) vcan0 19B#ADEBC33A3C563B
(1753640745.116016) vcan0 244#0000000148
(1753640745.130476) vcan0 244#00000001B6
(1753640745.130963) vcan0 19B#48A9
(1753640745.145603) vcan0 19B#ECC45C00
(1753640745.145765) vcan0 244#000000010A
(1753640745.161535) vcan0 244#00000001E6
(1753640745.161585) vcan0 19B#7E08B224777661
(1753640745.177066) vcan0 244#000000011C
(1753640745.177853) vcan0 19B#031BAB
(1753640745.193134) vcan0 244#0000000144
(1753640745.193156) vcan0 19B#AE04E153830E
(1753640745.207711) vcan0 244#00000001A2
(1753640745.208428) vcan0 19B#4F715DD0C13660F9
(1753640745.221947) vcan0 244#0000000118
(1753640745.222186) vcan0 19B#25E55C2B3CFDECA7
(1753640745.235613) vcan0 244#0000000169
(1753640745.235727) vcan0 19B#A478D5E9
(1753640745.244300) vcan0 188#00000000
(1753640745.246157) vcan0 19B#B1C1E2D444BC
(1753640745.249642) vcan0 244#00000001FD
(1753640745.257285) vcan0 19B#368217180A41
(1753640745.271625) vcan0 19B#38D1CA
(1753640745.271762) vcan0 244#0000000135
(1753640745.286432) vcan0 244#000000011F
(1753640745.287195) vcan0 19B#50312ACFFD
(1753640745.302031) vcan0 244#00000001CA
(1753640745.302989) vcan0 19B#5456
(1753640745.317968) vcan0 19B#DB93C345
(1753640745.318224) vcan0 244#0000000187
(1753640745.333176) vcan0 244#00000001B9
(1753640745.333910) vcan0 19B#09
(1753640745.348450) vcan0 244#0000000144
(1753640745.349591) vcan0 19B#AF
(1753640745.364307) vcan0 244#00000001C7
(1753640745.364552) vcan0 19B#E73A078A586D81A8
(1753640745.380692) vcan0 19B#19C50E64671933A0
(1753640745.380781) vcan0 244#0000000190
(1753640745.395510) vcan0 244#00000001D0
(1753640745.397290) vcan0 19B#0FEA
(1753640745.410610) vcan0 244#00000001F7
(1753640745.410806) vcan0 19B#1336DD31473F65
(1753640745.421266) vcan0 19B#A4D2602829
(1753640745.424531) vcan0 244#0000000160
(1753640745.431948) vcan0 19B#1F86B851DBC640
(1753640745.436047) vcan0 244#0000000112
(1753640745.443017) vcan0 19B#F5E39727916A061C
(1753640745.447323) vcan0 244#0000000161
(1753640745.453988) vcan0 19B#381AC62A6822
(1753640745.459076) vcan0 244#0000000147
(1753640745.465455) vcan0 19B#041D300B646A20
(1753640745.471174) vcan0 244#0000000151
(1753640745.486729) vcan0 244#0000000127
(1753640745.488939) vcan0 19B#F9B0B4C431D13B2E
(1753640745.501854) vcan0 19B#F720F234CAEE7123
(1753640745.501871) vcan0 244#00000001C2
(1753640745.517528) vcan0 19B#AE0DE1E093F92707
(1753640745.517589) vcan0 244#0000000153
(1753640745.532715) vcan0 244#00000001B6
(1753640745.532929) vcan0 19B#453D06410D
(1753640745.548286) vcan0 19B#B4DE01EDE05BF51D
(1753640745.548733) vcan0 244#000000010D
(1753640745.564553) vcan0 19B#D4
(1753640745.564997) vcan0 244#00000001BB
(1753640745.580782) vcan0 244#000000019B
(1753640745.581514) vcan0 19B#0494
(1753640745.597759) vcan0 19B#0B7B
(1753640745.597943) vcan0 244#00000001E0
(1753640745.612637) vcan0 244#0000000161
(1753640745.613700) vcan0 19B#4A84F203C442
(1753640745.628269) vcan0 244#000000019D
(1753640745.628387) vcan0 19B#C868001E
(1753640745.645264) vcan0 19B#B23921
(1753640745.645444) vcan0 244#0000000199
(1753640745.660565) vcan0 244#00000001C2
(1753640745.660723) vcan0 19B#7954
(1753640745.673046) vcan0 244#000000015A
(1753640745.676379) vcan0 19B#3CA2
(1753640745.686144) vcan0 244#000000014D
(1753640745.687301) vcan0 19B#D348A048
(1753640745.697967) vcan0 19B#361FED0B
(1753640745.698434) vcan0 244#0000000147
(1753640745.722597) vcan0 19B#96
(1753640745.724894) vcan0 244#00000001F5
(1753640745.738404) vcan0 19B#2F41CC3BCCE291B5
(1753640745.738743) vcan0 244#00000001A0
(1753640745.753660) vcan0 244#0000000103
(1753640745.753950) vcan0 188#00000000
(1753640745.768695) vcan0 244#000000015B
(1753640745.770036) vcan0 19B#FE02D725BC
(1753640745.783861) vcan0 244#00000001C3
(1753640745.784104) vcan0 19B#57
(1753640745.799573) vcan0 19B#B311
(1753640745.799721) vcan0 244#0000000158
(1753640745.814566) vcan0 19B#DECE
(1753640745.814781) vcan0 244#00000001BC
(1753640745.829423) vcan0 244#0000000126
(1753640745.833277) vcan0 19B#9860
(1753640745.845564) vcan0 244#0000000104
(1753640745.845805) vcan0 19B#6D83
(1753640745.860962) vcan0 244#0000000128
(1753640745.861384) vcan0 19B#72D29E1C51242664
(1753640745.876833) vcan0 19B#4DCF0F
(1753640745.877653) vcan0 244#0000000139
(1753640745.892203) vcan0 244#0000000101
(1753640745.892335) vcan0 19B#84DC
(1753640745.907502) vcan0 244#0000000157
(1753640745.907955) vcan0 19B#8DBD
(1753640745.922786) vcan0 19B#30AE4AA2
(1753640745.923474) vcan0 244#0000000138
(1753640745.938106) vcan0 244#0000000166
(1753640745.938435) vcan0 19B#472B30
(1753640745.954061) vcan0 244#0000000145
(1753640745.954592) vcan0 19B#67DCA7965442E43B
(1753640745.969744) vcan0 244#000000017C
(1753640745.970600) vcan0 19B#FF
(1753640745.985297) vcan0 244#0000000143
(1753640745.986091) vcan0 19B#62C618C2BBB7022D
(1753640746.000501) vcan0 244#0000000135
(1753640746.000673) vcan0 19B#1B
(1753640746.016548) vcan0 19B#AD268191F12C43
(1753640746.016682) vcan0 244#00000001CE
(1753640746.031486) vcan0 19B#FD8A444D83C4E9
(1753640746.031994) vcan0 244#000000016D
(1753640746.046668) vcan0 244#000000010C
(1753640746.047910) vcan0 19B#53B7AFD6F30601
(1753640746.062487) vcan0 19B#D879ED
(1753640746.062897) vcan0 244#0000000186
(1753640746.077284) vcan0 19B#3B2AA89A68
(1753640746.077328) vcan0 244#00000001E9
(1753640746.092874) vcan0 244#000000018B
(1753640746.093075) vcan0 19B#770CA51FDA613067
(1753640746.103837) vcan0 19B#2C3F6F8FE767
(1753640746.105530) vcan0 244#00000001BF
(1753640746.123098) vcan0 244#000000011F
(1753640746.123631) vcan0 19B#336159D8D05D
(1753640746.138609) vcan0 19B#2753F64DCE793F40
(1753640746.138827) vcan0 244#00000001E9
(1753640746.153531) vcan0 244#0000000136
(1753640746.154194) vcan0 19B#BDB3D136
(1753640746.169590) vcan0 244#0000000109
(1753640746.170161) vcan0 19B#52B8FD46EC9D92E0
(1753640746.185854) vcan0 19B#651FE412
(1753640746.187121) vcan0 244#00000001CD
(1753640746.200954) vcan0 19B#2AD363
(1753640746.201725) vcan0 244#00000001C8
(1753640746.215813) vcan0 19B#E63DE8
(1753640746.215924) vcan0 244#0000000145
(1753640746.231364) vcan0 244#00000001EC
(1753640746.232031) vcan0 19B#A52F4EE1D13D
(1753640746.243063) vcan0 244#000000013F
(1753640746.245234) vcan0 19B#F84DEF89
(1753640746.263097) vcan0 244#0000000124
(1753640746.263153) vcan0 188#00000000
(1753640746.266653) vcan0 19B#49
(1753640746.278605) vcan0 19B#EF024A607EC9
(1753640746.278773) vcan0 244#0000000161
(1753640746.294099) vcan0 19B#A71AA7C9B2D0DCF8
(1753640746.294251) vcan0 244#0000000198
(1753640746.309255) vcan0 19B#30C2B2FEA065
(1753640746.309276) vcan0 244#00000001E8
(1753640746.323030) vcan0 19B#66
(1753640746.323564) vcan0 244#0000000102
(1753640746.340049) vcan0 19B#10058064C973
(1753640746.340496) vcan0 244#00000001DC
(1753640746.351843) vcan0 19B#FDD38C277AE6EFE4
(1753640746.352048) vcan0 244#00000001BE
(1753640746.370861) vcan0 244#0000000120
(1753640746.371140) vcan0 19B#433EF8442A
(1753640746.385933) vcan0 244#00000001D0
(1753640746.387920) vcan0 19B#9E00
(1753640746.401520) vcan0 244#0000000193
(1753640746.401555) vcan0 19B#3E6EB6BBEE
(1753640746.417814) vcan0 244#0000000122
(1753640746.419596) vcan0 19B#A128C7674D
(1753640746.433187) vcan0 19B#0315C16D49A8A9
(1753640746.433642) vcan0 244#0000000131
(1753640746.449153) vcan0 19B#733F03
(1753640746.449783) vcan0 244#000000012A
(1753640746.465575) vcan0 244#0000000182
(1753640746.469553) vcan0 19B#113A0A44
(1753640746.480647) vcan0 19B#BAEA
(1753640746.480939) vcan0 244#0000000184
(1753640746.495571) vcan0 19B#27D3968D
(1753640746.495622) vcan0 244#0000000196
(1753640746.511059) vcan0 244#000000010A
(1753640746.511762) vcan0 19B#3F5F91D204
(1753640746.527561) vcan0 19B#883A6AEF14
(1753640746.527835) vcan0 244#000000012C
(1753640746.542847) vcan0 19B#D4A9D75B
(1753640746.543082) vcan0 244#00000001B8
(1753640746.558450) vcan0 19B#82D926FB5B
(1753640746.558666) vcan0 244#0000000191
(1753640746.573772) vcan0 244#00000001D3
(1753640746.575566) vcan0 19B#58F4
(1753640746.588936) vcan0 19B#6F318AF20821
(1753640746.589171) vcan0 244#0000000193
(1753640746.604349) vcan0 244#00000001CC
(1753640746.604554) vcan0 19B#C887CD
(1753640746.614809) vcan0 244#0000000159
(1753640746.616706) vcan0 19B#CCECEF8B
(1753640746.625659) vcan0 244#0000000166
(1753640746.631355) vcan0 19B#2B
(1753640746.650494) vcan0 244#00000001F1
(1753640746.650880) vcan0 19B#D48F4D
(1753640746.666454) vcan0 244#0000000142
(1753640746.666646) vcan0 19B#5297A9528703
(1753640746.682028) vcan0 244#00000001CA
(1753640746.682119) vcan0 19B#BE161B
(1753640746.698601) vcan0 244#00000001D4
(1753640746.698883) vcan0 19B#367844
(1753640746.713728) vcan0 19B#2F64EF43
(1753640746.714325) vcan0 244#00000001CC
(1753640746.728892) vcan0 19B#3E357132B0
(1753640746.729132) vcan0 244#0000000125
(1753640746.744088) vcan0 244#0000000195
(1753640746.744838) vcan0 19B#BBD8D2
(1753640746.759881) vcan0 19B#B2A6B449
(1753640746.759891) vcan0 244#00000001CA
(1753640746.765148) vcan0 188#00000000
(1753640746.775289) vcan0 244#00000001D9
(1753640746.775359) vcan0 19B#987B
(1753640746.790952) vcan0 244#0000000199
