(1753640464.626360) vcan0 244#00000001B2
(1753640464.639414) vcan0 244#000000018D
(1753640464.657996) vcan0 244#000000018F
(1753640464.674663) vcan0 244#000000019B
(1753640464.689540) vcan0 244#0000000113
(1753640464.705021) vcan0 244#0000000173
(1753640464.720901) vcan0 244#00000001A3
(1753640464.735557) vcan0 244#0000000126
(1753640464.751316) vcan0 244#00000001E3
(1753640464.766984) vcan0 244#00000001E3
(1753640464.782482) vcan0 244#0000000139
(1753640464.798298) vcan0 244#0000000119
(1753640464.814421) vcan0 244#0000000102
(1753640464.829746) vcan0 244#0000000113
(1753640464.842205) vcan0 244#000000019B
(1753640464.860866) vcan0 244#00000001D8
(1753640464.876805) vcan0 244#00000001A2
(1753640464.891620) vcan0 244#00000001EC
(1753640464.906346) vcan0 244#00000001A0
(1753640464.922170) vcan0 244#0000000119
(1753640464.922259) vcan0 188#00000000
(1753640464.937680) vcan0 244#0000000128
(1753640464.957219) vcan0 244#000000010B
(1753640464.965000) vcan0 244#0000000126
(1753640464.984873) vcan0 244#000000017A
(1753640465.000236) vcan0 244#000000017F
(1753640465.017198) vcan0 244#000000016C
(1753640465.032454) vcan0 244#000000018D
(1753640465.048003) vcan0 244#000000018B
(1753640465.062677) vcan0 244#0000000131
(1753640465.078466) vcan0 244#0000000167
(1753640465.094673) vcan0 244#0000000185
(1753640465.110155) vcan0 244#00000001FF
(1753640465.126042) vcan0 244#0000000191
(1753640465.141658) vcan0 244#00000001B1
(1753640465.157172) vcan0 244#0000000136
(1753640465.172510) vcan0 244#00000001C0
(1753640465.188794) vcan0 244#00000001C0
(1753640465.208315) vcan0 244#0000000176
(1753640465.219912) vcan0 244#0000000103
(1753640465.234979) vcan0 244#00000001C0
(1753640465.250602) vcan0 244#0000000175
(1753640465.266217) vcan0 244#0000000158
(1753640465.283907) vcan0 244#0000000176
(1753640465.298605) vcan0 244#0000000193
(1753640465.313499) vcan0 244#0000000108
(1753640465.329603) vcan0 244#000000012D
(1753640465.344716) vcan0 244#0000000107
(1753640465.360906) vcan0 244#00000001C6
(1753640465.374669) vcan0 244#0000000135
(1753640465.390467) vcan0 244#0000000143
(1753640465.407526) vcan0 244#000000017C
(1753640465.422718) vcan0 244#000000017A
(1753640465.438707) vcan0 244#000000016C
(1753640465.438733) vcan0 188#00000000
(1753640465.455101) vcan0 244#000000013E
(1753640465.469097) vcan0 244#0000000110
(1753640465.481034) vcan0 244#0000000187
(1753640465.499279) vcan0 244#00000001C6
(1753640465.515046) vcan0 244#00000001B9
(1753640465.530080) vcan0 244#00000001AE
(1753640465.545392) vcan0 244#0000000113
(1753640465.560973) vcan0 244#00000001BD
(1753640465.576475) vcan0 244#000000014F
(1753640465.591054) vcan0 244#00000001AF
(1753640465.609177) vcan0 244#000000016A
(1753640465.622242) vcan0 244#000000019D
(1753640465.638691) vcan0 244#0000000101
(1753640465.654301) vcan0 244#0000000145
(1753640465.676245) vcan0 244#00000001F9
(1753640465.700504) vcan0 244#0000000193
(1753640465.715611) vcan0 244#0000000165
(1753640465.731002) vcan0 244#0000000155
(1753640465.746090) vcan0 244#00000001A4
(1753640465.761418) vcan0 244#0000000159
(1753640465.773176) vcan0 244#00000001E8
(1753640465.793083) vcan0 244#00000001D3
(1753640465.809443) vcan0 244#000000017E
(1753640465.839076) vcan0 244#0000000131
(1753640465.853622) vcan0 244#00000001F6
(1753640465.870238) vcan0 244#00000001E0
(1753640465.886728) vcan0 244#0000000183
(1753640465.900942) vcan0 244#0000000156
(1753640465.916339) vcan0 244#0000000178
(1753640465.930669) vcan0 244#0000000199
(1753640465.946837) vcan0 244#000000015E
(1753640465.946960) vcan0 188#00000000
(1753640465.962735) vcan0 244#00000001D3
(1753640465.978320) vcan0 244#0000000145
(1753640465.994948) vcan0 244#0000000101
(1753640466.009343) vcan0 244#0000000135
(1753640466.024787) vcan0 244#000000019C
(1753640466.040124) vcan0 244#00000001CC
(1753640466.055431) vcan0 244#0000000166
(1753640466.070815) vcan0 244#0000000175
(1753640466.087698) vcan0 244#00000001B8
(1753640466.102958) vcan0 244#0000000130
(1753640466.118363) vcan0 244#00000001FA
(1753640466.134392) vcan0 244#00000001F1
(1753640466.150495) vcan0 244#00000001CF
(1753640466.164831) vcan0 244#000000015B
(1753640466.180835) vcan0 244#0000000106
(1753640466.195936) vcan0 244#00000001FE
(1753640466.212109) vcan0 244#000000015D
(1753640466.228431) vcan0 244#0000000179
(1753640466.243396) vcan0 244#00000001BF
(1753640466.258534) vcan0 244#00000001D3
(1753640466.274046) vcan0 244#000000017D
(1753640466.290520) vcan0 244#00000001AE
(1753640466.304819) vcan0 244#000000016E
(1753640466.320185) vcan0 244#000000014A
(1753640466.336207) vcan0 244#00000001C1
(1753640466.351472) vcan0 244#00000001EA
(1753640466.366714) vcan0 244#000000016A
(1753640466.378592) vcan0 244#00000001B4
(1753640466.389533) vcan0 244#000000017F
(1753640466.414036) vcan0 244#000000011E
(1753640466.430565) vcan0 244#00000001AF
(1753640466.462162) vcan0 244#00000001EE
(1753640466.462241) vcan0 188#00000000
(1753640466.478060) vcan0 244#0000000101
(1753640466.507944) vcan0 244#000000014C
(1753640466.523959) vcan0 244#000000013F
(1753640466.544237) vcan0 244#00000001B9
(1753640466.569264) vcan0 244#00000001B5
(1753640466.585939) vcan0 244#0000000141
(1753640466.601603) vcan0 244#0000000149
(1753640466.617090) vcan0 244#0000000109
(1753640466.632587) vcan0 244#000000010F
(1753640466.648074) vcan0 244#000000015F
(1753640466.663426) vcan0 244#0000000197
(1753640466.679860) vcan0 244#00000001FA
(1753640466.694751) vcan0 244#0000000157
(1753640466.710788) vcan0 244#00000001BA
(1753640466.725652) vcan0 244#0000000114
(1753640466.742479) vcan0 244#00000001D1
(1753640466.757243) vcan0 244#00000001CF
(1753640466.774955) vcan0 244#00000001EF
(1753640466.803821) vcan0 244#0000000141
(1753640466.818778) vcan0 244#00000001E8
(1753640466.834941) vcan0 244#000000013A
(1753640466.850513) vcan0 244#000000014B
(1753640466.866059) vcan0 244#000000014E
(1753640466.882932) vcan0 244#0000000198
(1753640466.898023) vcan0 244#0000000151
(1753640466.913266) vcan0 244#00000001D4
(1753640466.928152) vcan0 244#00000001E8
(1753640466.943801) vcan0 244#00000001EC
(1753640466.959588) vcan0 244#000000018F
(1753640466.974674) vcan0 244#0000000133
(1753640466.974762) vcan0 188#00000000
(1753640466.990158) vcan0 244#0000000177
(1753640467.005966) vcan0 244#00000001AC
(1753640467.021231) vcan0 244#000000019C
(1753640467.037655) vcan0 244#00000001D3
(1753640467.052512) vcan0 244#0000000181
(1753640467.067543) vcan0 244#00000001EE
(1753640467.083145) vcan0 244#0000000130
(1753640467.098819) vcan0 244#00000001E6
(1753640797.028065) vcan0 244#0000000194
(1753640797.030510) vcan0 143#6B6B00E0
(1753640797.030558) vcan0 333#0000000000002D
(1753640797.030571) vcan0 095#800007F400000017
(1753640797.030584) vcan0 1A4#000000080000003E
(1753640797.030597) vcan0 1AA#7FFF00000000673F
(1753640797.030609) vcan0 1B0#000F0000000175
(1753640797.030623) vcan0 1D0#000000000000000A
(1753640797.030635) vcan0 039#002A
(1753640797.030645) vcan0 166#D0320027
(1753640797.030656) vcan0 158#0000000000000028
(1753640797.030667) vcan0 161#000005500108002B
(1753640797.030679) vcan0 191#010010A141001A
(1753640797.030692) vcan0 133#00000000B6
(1753640797.030706) vcan0 136#0002000000000039
(1753640797.030718) vcan0 13A#0000000000000037
(1753640797.030729) vcan0 13F#000000050000003D
(1753640797.030755) vcan0 164#0000C01AA8000013
(1753640797.030768) vcan0 17C#0000000010000030
(1753640797.030779) vcan0 18E#00007A
(1753640797.030792) vcan0 294#040B0002CF5A001D
(1753640797.030803) vcan0 21E#03E83745220610
(1753640797.030814) vcan0 183#0000000500001033
(1753640797.030826) vcan0 143#6B6B00FF
(1753640797.030837) vcan0 095#800007F400000026
(1753640797.030847) vcan0 166#D0320036
(1753640797.030859) vcan0 158#0000000000000037
(1753640797.030872) vcan0 161#000005500108003A
(1753640797.030883) vcan0 191#010010A1410029
(1753640797.030895) vcan0 164#0000C01AA8000022
(1753640797.030906) vcan0 133#0000000089
(1753640797.030917) vcan0 136#000200000000000C
(1753640797.030927) vcan0 13A#000000000000000A
(1753640797.030938) vcan0 13F#0000000500000000
(1753640797.030949) vcan0 17C#0000000010000003
(1753640797.030959) vcan0 18E#00004D
(1753640797.030971) vcan0 1CF#80050000002D
(1753640797.030982) vcan0 1DC#0200002A
(1753640797.030992) vcan0 320#000021
(1753640797.031004) vcan0 324#7465000000000E29
(1753640797.031015) vcan0 37C#FD00FD00097F0029
(1753640797.031026) vcan0 183#0000000300001008
(1753640797.031038) vcan0 143#6B6B00C2
(1753640797.031051) vcan0 095#800007F400000035
(1753640797.031063) vcan0 1A4#0000000800000001
(1753640797.031074) vcan0 1AA#7FFF000000006801
(1753640797.031086) vcan0 1B0#000F0000000148
(1753640797.031099) vcan0 1D0#000000000000000A
(1753640797.031110) vcan0 039#0039
(1753640797.031121) vcan0 166#D0320009
(1753640797.031131) vcan0 158#000000000000000A
(1753640797.031143) vcan0 161#000005500108000D
(1753640797.031156) vcan0 191#010010A1410038
(1753640797.031167) vcan0 133#0000000098
(1753640797.031178) vcan0 136#000200000000001B
(1753640797.031189) vcan0 13A#0000000000000019
(1753640797.031201) vcan0 13F#000000050000001F
(1753640797.031213) vcan0 164#0000C01AA8000031
(1753640797.031225) vcan0 17C#0000000010000012
(1753640797.031236) vcan0 18E#00005C
(1753640797.031247) vcan0 183#0000000A00001010
(1753640797.031257) vcan0 143#6B6B00D1
(1753640797.031269) vcan0 095#800007F400000008
(1753640797.031281) vcan0 166#D0320018
(1753640797.031292) vcan0 039#000C
(1753640797.031302) vcan0 158#0000000000000019
(1753640797.031313) vcan0 161#000005500108001C
(1753640797.031323) vcan0 191#010010A141000B
(1753640797.031333) vcan0 164#0000C01AA8000004
(1753640797.031343) vcan0 133#00000000A7
(1753640797.031355) vcan0 136#000200000000002A
(1753640797.031367) vcan0 13A#0000000000000028
(1753640797.031378) vcan0 13F#000000050000002E
(1753640797.031392) vcan0 17C#0000000010000021
(1753640797.031403) vcan0 18E#00006B
(1753640797.031414) vcan0 1CF#80050000003C
(1753640797.031426) vcan0 1DC#02000039
(1753640797.031438) vcan0 183#0000000700001022
(1753640797.031450) vcan0 143#6B6B00E0
(1753640797.031462) vcan0 095#800007F400000017
(1753640797.031475) vcan0 1A4#0000000800000010
(1753640797.031486) vcan0 1AA#7FFF000000006810
(1753640797.031498) vcan0 1B0#000F0000000157
(1753640797.031509) vcan0 1D0#000000000000000A
(1753640797.031521) vcan0 166#D0320027
(1753640797.031532) vcan0 158#0000000000000028
(1753640797.031544) vcan0 161#000005500108002B
(1753640797.031556) vcan0 191#010010A141001A
(1753640797.031568) vcan0 133#00000000B6
(1753640797.031579) vcan0 136#0002000000000039
(1753640797.037375) vcan0 13A#0000000000000037
(1753640797.037407) vcan0 13F#000000050000003D
(1753640797.037420) vcan0 164#0000C01AA8000013
(1753640797.037431) vcan0 17C#0000000010000030
(1753640797.037442) vcan0 18E#00007A
(1753640797.037453) vcan0 294#040B0002CF5A002C
(1753640797.037464) vcan0 21E#03E8374522062F
(1753640797.037476) vcan0 309#00000000000000B1
(1753640797.037487) vcan0 039#001B
(1753640797.037498) vcan0 183#0000000500001033
(1753640797.037508) vcan0 143#6B6B00FF
(1753640797.037519) vcan0 095#800007F400000026
(1753640797.037531) vcan0 166#D0320036
(1753640797.037583) vcan0 158#0000000000000037
(1753640797.037595) vcan0 161#000005500108003A
(1753640797.037608) vcan0 191#010010A1410029
(1753640797.037620) vcan0 164#0000C01AA9000021
(1753640797.037632) vcan0 133#0000000089
(1753640797.037643) vcan0 136#000200000000000C
(1753640797.037654) vcan0 13A#000000000000000A
(1753640797.037666) vcan0 13F#0000000500000000
(1753640797.037677) vcan0 17C#0000000010000003
(1753640797.037698) vcan0 18E#00004D
(1753640797.037712) vcan0 1CF#80050000000F
(1753640797.037725) vcan0 1DC#0200000C
(1753640797.037737) vcan0 183#0000000B00001000
(1753640797.037749) vcan0 143#6B6B00C2
(1753640797.037762) vcan0 095#800007F400000035
(1753640797.037773) vcan0 305#8035
(1753640797.037785) vcan0 1A4#000000080000002F
(1753640797.037797) vcan0 1AA#7FFF000000006720
(1753640797.037809) vcan0 1B0#000F0000000166
(1753640797.037820) vcan0 1D0#000000000000000A
(1753640797.037832) vcan0 166#D0320009
(1753640797.037845) vcan0 158#000000000000000A
(1753640797.037857) vcan0 161#000005500108000D
(1753640797.037869) vcan0 191#010010A1410038
(1753640797.037881) vcan0 133#0000000098
(1753640797.037893) vcan0 136#000200000000001B
(1753640797.037904) vcan0 13A#0000000000000019
(1753640797.037915) vcan0 13F#000000050000001F
(1753640797.037926) vcan0 164#0000C01AA8000031
(1753640797.037938) vcan0 17C#0000000010000012
(1753640797.037950) vcan0 18E#00005C
(1753640797.037961) vcan0 039#002A
(1753640797.037972) vcan0 183#0000000800001012
(1753640797.037983) vcan0 143#6B6B00D1
(1753640797.037994) vcan0 095#800007F400000008
(1753640797.038005) vcan0 166#D0320018
(1753640797.038016) vcan0 158#0000000000000019
(1753640797.038163) vcan0 161#000005500108001C
(1753640797.038209) vcan0 191#010010A141000B
(1753640797.038221) vcan0 164#0000C01AA8000004
(1753640797.038232) vcan0 133#00000000A7
(1753640797.038243) vcan0 136#000200000000002A
(1753640797.038254) vcan0 13A#0000000000000028
(1753640797.038266) vcan0 13F#000000050000002E
(1753640797.038277) vcan0 17C#0000000010000021
(1753640797.038288) vcan0 18E#00006B
(1753640797.038299) vcan0 1CF#80050000001E
(1753640797.038311) vcan0 1DC#0200001B
(1753640797.038353) vcan0 183#0000000600001023
(1753640797.038365) vcan0 143#6B6B00E0
(1753640797.038376) vcan0 095#800007F400000017
(1753640797.038388) vcan0 1A4#000000080000003E
(1753640797.038411) vcan0 1AA#7FFF00000000673F
(1753640797.038423) vcan0 1B0#000F0000000175
(1753640797.038435) vcan0 1D0#000000000000000A
(1753640797.038446) vcan0 039#0039
(1753640797.038459) vcan0 166#D0320027
(1753640797.038470) vcan0 158#0000000000000028
(1753640797.038482) vcan0 161#000005500108002B
(1753640797.038495) vcan0 191#010010A141001A
(1753640797.038517) vcan0 133#00000000B6
(1753640797.038529) vcan0 136#0002000000000039
(1753640797.038540) vcan0 13A#0000000000000037
(1753640797.038552) vcan0 13F#000000050000003D
(1753640797.038563) vcan0 164#0000C01AA8000013
(1753640797.038575) vcan0 17C#0000000010000030
(1753640797.038587) vcan0 18E#00007A
(1753640797.038599) vcan0 294#040B0002CF5A003B
(1753640797.038621) vcan0 21E#03E8374522063E
(1753640797.038633) vcan0 183#0000000C0000103C
(1753640797.038646) vcan0 143#6B6B00FF
(1753640797.038657) vcan0 095#800007F800000022
(1753640797.038669) vcan0 166#D0320036
(1753640797.038682) vcan0 158#0000000000000037
(1753640797.038693) vcan0 161#000005500108003A
(1753640797.038705) vcan0 191#010010A1410029
(1753640797.038741) vcan0 164#0000C01AA8000022
(1753640797.038752) vcan0 133#0000000089
(1753640797.038764) vcan0 039#000C
(1753640797.038776) vcan0 136#000200000000000C
(1753640797.038789) vcan0 13A#000000000000000A
(1753640797.038824) vcan0 13F#0000000500000000
(1753640797.038836) vcan0 17C#0000000010000003
(1753640797.038849) vcan0 18E#00004D
(1753640797.038862) vcan0 1CF#80050000002D
(1753640797.038873) vcan0 1DC#0200002A
(1753640797.038909) vcan0 183#0000000900001002
(1753640797.038921) vcan0 143#6B6B00C2
(1753640797.038933) vcan0 333#0000000000003C
(1753640797.038946) vcan0 095#800007F800000031
(1753640797.038963) vcan0 1A4#0000000800000001
(1753640797.038975) vcan0 1AA#7FFF000000006801
(1753640797.038986) vcan0 1B0#000F0000000148
(1753640797.039007) vcan0 1D0#000000000000000A
(1753640797.039019) vcan0 166#D0320009
(1753640797.039032) vcan0 158#000000000000000A
(1753640797.039043) vcan0 161#000005500108000D
(1753640797.039054) vcan0 191#010010A1410038
(1753640797.039066) vcan0 133#0000000098
(1753640797.039078) vcan0 136#000200000000001B
(1753640797.039089) vcan0 13A#0000000000000019
(1753640797.039100) vcan0 13F#000000050000001F
(1753640797.039112) vcan0 164#0000C01AA8000031
(1753640797.039131) vcan0 17C#0000000010000012
(1753640797.039149) vcan0 18E#00005C
(1753640797.039160) vcan0 183#0000000E0000101C
(1753640797.039172) vcan0 143#6B6B00D1
(1753640797.039183) vcan0 039#001B
(1753640797.039195) vcan0 095#800007F800000004
(1753640797.039206) vcan0 166#D0320018
(1753640797.039218) vcan0 158#0000000000000019
(1753640797.039230) vcan0 161#000005500108001C
(1753640797.039242) vcan0 191#010090A1410003
(1753640797.039258) vcan0 133#00000000A7
(1753640797.039268) vcan0 136#000200000000002A
(1753640797.039280) vcan0 13A#0000000000000028
(1753640797.039291) vcan0 13F#000000050000002E
(1753640797.039390) vcan0 164#0000C01AA8000004
(1753640797.039418) vcan0 17C#0000000010000021
(1753640797.039424) vcan0 18E#00006B
(1753640797.039436) vcan0 1CF#80050000003C
(1753640797.039446) vcan0 1DC#02000039
(1753640797.039456) vcan0 320#000030
(1753640797.039467) vcan0 324#7465000000000E38
(1753640797.039477) vcan0 37C#FD00FD00097F0038
(1753640797.039489) vcan0 183#0000000A0000102F
(1753640797.039500) vcan0 143#6B6B00E0
(1753640797.039511) vcan0 095#800007F800000013
(1753640797.039523) vcan0 1A4#0000000800000010
(1753640797.039617) vcan0 1AA#7FFF000000006810
(1753640797.039630) vcan0 1B0#000F0000000157
(1753640797.039642) vcan0 1D0#000000000000000A
(1753640797.039659) vcan0 039#002A
(1753640797.039679) vcan0 166#D0320027
(1753640797.039698) vcan0 158#0000000000000028
(1753640797.039710) vcan0 161#000005500108002B
(1753640797.039722) vcan0 191#010090A1410012
(1753640797.039733) vcan0 133#00000000B6
(1753640797.039744) vcan0 136#0002000000000039
(1753640797.039756) vcan0 13A#0000000000000037
(1753640797.039767) vcan0 13F#000000050000003D
(1753640797.039779) vcan0 164#0000C01AA9000012
(1753640797.039791) vcan0 17C#0000000010000030
(1753640797.039803) vcan0 18E#00007A
(1753640797.039815) vcan0 294#040B0002CF5A000E
(1753640797.039852) vcan0 21E#03E83745220601
(1753640797.039864) vcan0 183#0000000F00001039
(1753640797.039875) vcan0 143#6B6B00FF
(1753640797.039887) vcan0 095#800007F800000022
(1753640797.039899) vcan0 166#D0320036
(1753640797.039968) vcan0 158#0000000000000037
(1753640797.039978) vcan0 161#000005500108003A
(1753640797.039982) vcan0 191#010090A1410021
(1753640797.039987) vcan0 164#0000C01AA8000022
(1753640797.039993) vcan0 133#0000000089
(1753640797.039997) vcan0 136#000200000000000C
(1753640797.040005) vcan0 13A#000000000000000A
(1753640797.040010) vcan0 13F#0000000500000000
(1753640797.040015) vcan0 17C#0000000010000003
(1753640797.040020) vcan0 18E#00004D
(1753640797.040025) vcan0 1CF#80050000000F
(1753640797.040030) vcan0 1DC#0200000C
(1753640797.040035) vcan0 183#0000001300001007
(1753640797.040040) vcan0 039#0039
(1753640797.040045) vcan0 143#6B6B00C2
(1753640797.040050) vcan0 095#800007F400000035
(1753640797.040055) vcan0 1A4#000000080000002F
(1753640797.040060) vcan0 1AA#7FFF000000006720
(1753640797.040065) vcan0 1B0#000F0000000166
(1753640797.040070) vcan0 1D0#000000000000000A
(1753640797.040075) vcan0 166#D0320009
(1753640797.040081) vcan0 158#000000000000000A
(1753640797.040085) vcan0 161#000005500108000D
(1753640797.040090) vcan0 191#010090A1410030
(1753640797.040095) vcan0 133#0000000098
(1753640797.040101) vcan0 136#000200000000001B
(1753640797.040106) vcan0 13A#0000000000000019
(1753640797.040112) vcan0 13F#000000050000001F
(1753640797.040117) vcan0 164#0000C01AA8000031
(1753640797.040124) vcan0 17C#0000000010000012
(1753640797.040130) vcan0 18E#00005C
(1753640797.040135) vcan0 309#0000000000000084
(1753640797.040140) vcan0 183#0000000E0000101C
(1753640797.040145) vcan0 143#6B6B00D1
(1753640797.040150) vcan0 095#800007F400000008
(1753640797.040155) vcan0 039#000C
(1753640797.040160) vcan0 166#D0320018
(1753640797.040165) vcan0 158#0000000000000019
(1753640797.040170) vcan0 161#000005500108001C
(1753640797.040176) vcan0 191#010090A1410003
(1753640797.040181) vcan0 164#0000C01AA8000004
(1753640797.040186) vcan0 133#00000000A7
(1753640797.040191) vcan0 136#000200000000002A
(1753640797.040196) vcan0 13A#0000000000000028
(1753640797.040201) vcan0 13F#000000050000002E
(1753640797.040206) vcan0 17C#0000000010000021
(1753640797.040211) vcan0 18E#00006B
(1753640797.040216) vcan0 1CF#80050000001E
(1753640797.040222) vcan0 1DC#0200001B
(1753640797.040231) vcan0 183#0000000A0000102F
(1753640797.040236) vcan0 143#6B6B00E0
(1753640797.040240) vcan0 095#800007F400000017
(1753640797.040245) vcan0 1A4#000000080000003E
(1753640797.040250) vcan0 1AA#7FFF00000000673F
(1753640797.040255) vcan0 1B0#000F0000000175
(1753640797.040259) vcan0 1D0#000000000000000A
(1753640797.040264) vcan0 166#D0320027
(1753640797.040269) vcan0 158#0000000000000028
(1753640797.040275) vcan0 161#000005500108002B
(1753640797.040280) vcan0 191#010090A1410012
(1753640797.040285) vcan0 133#00000000B6
(1753640797.040290) vcan0 136#0002000000000039
(1753640797.040296) vcan0 039#001B
(1753640797.040301) vcan0 13A#0000000000000037
(1753640797.040305) vcan0 13F#000000050000003D
(1753640797.040310) vcan0 164#0000C01AA8000013
(1753640797.040314) vcan0 17C#0000000010000030
(1753640797.040319) vcan0 18E#00007A
(1753640797.040323) vcan0 294#040B0002CF5A001D
(1753640797.040328) vcan0 305#8008
(1753640797.040332) vcan0 21E#03E83745220610
(1753640797.040336) vcan0 183#0000000700001031
(1753640797.040341) vcan0 143#6B6B00FF
(1753640797.040346) vcan0 095#800007F400000026
(1753640797.040351) vcan0 5A1#960000000000622F
(1753640797.040356) vcan0 166#D0320036
(1753640797.040361) vcan0 158#0000000000000037
(1753640797.040367) vcan0 161#000005500108003A
(1753640797.040372) vcan0 191#010090A1410021
(1753640797.040377) vcan0 133#0000000089
(1753640797.040381) vcan0 136#000200000000000C
(1753640797.040386) vcan0 13A#000000000000000A
(1753640797.040391) vcan0 13F#0000000500000000
(1753640797.040395) vcan0 164#0000C01AA8000022
(1753640797.040400) vcan0 17C#0000000010000003
(1753640797.040405) vcan0 18E#00004D
(1753640797.040410) vcan0 1CF#80050000002D
(1753640797.040415) vcan0 1DC#0200002A
(1753640797.040420) vcan0 183#0000000500001006
(1753640797.040425) vcan0 143#6B6B00C2
(1753640797.040430) vcan0 039#002A
(1753640797.040435) vcan0 095#800007F400000035
(1753640797.040454) vcan0 1A4#0000000800000001
(1753640797.040459) vcan0 1AA#7FFF000000006801
(1753640797.040464) vcan0 1B0#000F0000000148
(1753640797.040469) vcan0 1D0#000000000000000A
(1753640797.040474) vcan0 166#D0320009
(1753640797.040479) vcan0 158#000000000000000A
(1753640797.040484) vcan0 161#000005500108000D
(1753640797.040494) vcan0 191#010090A1410030
(1753640797.040506) vcan0 133#0000000098
(1753640797.040521) vcan0 136#000200000000001B
(1753640797.040531) vcan0 13A#0000000000000019
(1753640797.040541) vcan0 13F#000000050000001F
(1753640797.040551) vcan0 164#0000C01AA8000031
(1753640797.040561) vcan0 17C#0000000010000012
(1753640797.040571) vcan0 18E#00005C
(1753640797.040581) vcan0 183#0000000B0000101F
(1753640797.040591) vcan0 143#6B6B00D1
(1753640797.040646) vcan0 095#800007F400000008
(1753640797.040657) vcan0 039#0039
(1753640797.040669) vcan0 166#D0320018
(1753640797.040680) vcan0 158#0000000000000019
(1753640797.040692) vcan0 161#000005500108001C
(1753640797.040703) vcan0 191#010090A1410003
(1753640797.040713) vcan0 133#00000000A7
(1753640797.040722) vcan0 136#000200000000002A
(1753640797.040732) vcan0 13A#0000000000000028
(1753640797.040742) vcan0 13F#000000050000002E
(1753640797.040754) vcan0 164#0000C01AA8000004
(1753640797.040765) vcan0 17C#0000000010000021
(1753640797.040775) vcan0 18E#00006B
(1753640797.040785) vcan0 1CF#80050000003C
(1753640797.040795) vcan0 1DC#02000039
(1753640797.040805) vcan0 183#0000000800001021
(1753640797.040815) vcan0 143#6B6B00E0
(1753640797.040825) vcan0 333#0000000000000F
(1753640797.040835) vcan0 095#800007F400000017
(1753640797.040847) vcan0 1A4#0000000800000010
(1753640797.040858) vcan0 1AA#7FFF000000006810
(1753640797.040868) vcan0 1B0#000F0000000157
(1753640797.040879) vcan0 1D0#000000000000000A
(1753640797.040890) vcan0 166#D0320027
(1753640797.040902) vcan0 158#0000000000000028
(1753640797.040913) vcan0 161#000005500108002B
(1753640797.040925) vcan0 191#010090A1410012
(1753640797.040936) vcan0 133#00000000B6
(1753640797.040948) vcan0 136#0002000000000039
(1753640797.040958) vcan0 13A#0000000000000037
(1753640797.040969) vcan0 13F#000000050000003D
(1753640797.040979) vcan0 164#0000C01AA8000013
(1753640797.040989) vcan0 17C#0000000010000030
(1753640797.041000) vcan0 18E#00007A
(1753640797.041017) vcan0 294#040B0002CF5A002C
(1753640797.041029) vcan0 21E#03E8374522062F
(1753640797.041040) vcan0 183#0000000D0000103B
(1753640797.041051) vcan0 143#6B6B00FF
(1753640797.041062) vcan0 095#800007F400000026
(1753640797.041072) vcan0 039#000C
(1753640797.041082) vcan0 166#D0320036
(1753640797.041092) vcan0 158#0000000000000037
(1753640797.041102) vcan0 161#000005500108003A
(1753640797.041114) vcan0 191#010090A1410021
(1753640797.041125) vcan0 133#0000000089
(1753640797.041135) vcan0 136#000200000000000C
(1753640797.041146) vcan0 13A#000000000000000A
(1753640797.041157) vcan0 13F#0000000500000000
(1753640797.041167) vcan0 164#0000C01AA8000022
(1753640797.041177) vcan0 17C#0000000010000003
(1753640797.041195) vcan0 18E#00004D
(1753640797.041207) vcan0 1CF#80050000000F
(1753640797.041217) vcan0 1DC#0200000C
(1753640797.041229) vcan0 320#000003
(1753640797.041286) vcan0 324#7465000000000E0B
(1753640797.041325) vcan0 37C#FD00FD00097F000B
(1753640797.041333) vcan0 183#0000000900001002
(1753640797.041338) vcan0 40C#033133383439000D
(1753640797.041343) vcan0 454#23EF09
(1753640797.041349) vcan0 143#6B6B00C2
(1753640797.041354) vcan0 095#800007F400000035
(1753640797.041358) vcan0 1A4#000000080000002F
(1753640797.041363) vcan0 1AA#7FFF000000006720
(1753640797.041368) vcan0 1B0#000F0000000166
(1753640797.041372) vcan0 1D0#000000000000000A
(1753640797.041376) vcan0 166#D0320009
(1753640797.041381) vcan0 158#000000000000000A
(1753640797.041386) vcan0 161#000005500108000D
(1753640797.041391) vcan0 191#010090A1410030
(1753640797.041395) vcan0 18E#00005C
(1753640797.041399) vcan0 133#0000000098
(1753640797.041404) vcan0 136#000200000000001B
(1753640797.041408) vcan0 13A#0000000000000019
(1753640797.041413) vcan0 039#001B
(1753640797.041417) vcan0 13F#000000050000001F
(1753640797.041422) vcan0 164#0000C01AA8000031
(1753640797.041427) vcan0 17C#0000000010000012
(1753640797.041432) vcan0 183#0000000600001014
(1753640797.041437) vcan0 143#6B6B00D1
(1753640797.041442) vcan0 095#800007F400000008
(1753640797.041447) vcan0 166#D0320018
(1753640797.041451) vcan0 158#0000000000000019
(1753640797.041456) vcan0 161#000005500108001C
(1753640797.041460) vcan0 191#010090A1410003
(1753640797.041464) vcan0 164#0000C01AA8000004
(1753640797.041468) vcan0 133#00000000A7
(1753640797.041473) vcan0 136#000200000000002A
(1753640797.041478) vcan0 13A#0000000000000028
(1753640797.041482) vcan0 13F#000000050000002E
(1753640797.041487) vcan0 17C#0000000010000021
(1753640797.041492) vcan0 18E#00006B
(1753640797.041497) vcan0 1CF#80050000001E
(1753640797.041502) vcan0 1DC#0200001B
(1753640797.041506) vcan0 183#0000000C0000102D
(1753640797.041511) vcan0 143#6B6B00E0
(1753640797.041516) vcan0 095#800007F400000017
(1753640797.041520) vcan0 039#002A
(1753640797.041524) vcan0 1A4#000000080000003E
(1753640797.041529) vcan0 1AA#7FFF00000000673F
(1753640797.041534) vcan0 1B0#000F0000000175
(1753640797.041539) vcan0 1D0#000000000000000A
(1753640797.041543) vcan0 166#D0320027
(1753640797.041548) vcan0 158#0000000000000028
(1753640797.041552) vcan0 161#000005500108002B
(1753640797.041557) vcan0 191#010090A1410012
(1753640797.041562) vcan0 133#00000000B6
(1753640797.041568) vcan0 136#0002000000000039
(1753640797.041572) vcan0 13A#0000000000000037
(1753640797.041577) vcan0 13F#000000050000003D
(1753640797.041581) vcan0 164#0000C01AA8000013
(1753640797.041585) vcan0 17C#0000000010000030
(1753640797.041590) vcan0 18E#00007A
(1753640797.041594) vcan0 294#040B0002CF5A003B
(1753640797.041598) vcan0 21E#03E8374522063E
(1753640797.041603) vcan0 309#0000000000000093
(1753640797.041607) vcan0 428#01040000521C10
(1753640797.041611) vcan0 405#000004000000001A
(1753640797.041615) vcan0 183#000000090000103F
(1753640797.041620) vcan0 143#6B6B00FF
(1753640797.041625) vcan0 095#800007F400000026
(1753640797.041630) vcan0 166#D0320036
(1753640797.041634) vcan0 158#0000000000000037
(1753640797.041639) vcan0 161#000005500108003A
(1753640797.041644) vcan0 191#010090A1410021
(1753640797.041649) vcan0 039#0039
(1753640797.041653) vcan0 133#0000000089
(1753640797.041658) vcan0 136#000200000000000C
(1753640797.041662) vcan0 13A#000000000000000A
(1753640797.041668) vcan0 13F#0000000500000000
(1753640797.041676) vcan0 164#0000C01AA8000022
(1753640797.041680) vcan0 17C#0000000010000003
(1753640797.041685) vcan0 18E#00004D
(1753640797.041689) vcan0 1CF#80050000002D
(1753640797.041693) vcan0 1DC#0200002A
(1753640797.041697) vcan0 183#0000000E0000100D
(1753640797.041704) vcan0 143#6B6B00C2
(1753640797.041709) vcan0 095#800007F400000035
(1753640797.041713) vcan0 1A4#0000000800000001
(1753640797.041717) vcan0 1AA#7FFF000000006801
(1753640797.041722) vcan0 1B0#000F0000000148
(1753640797.041726) vcan0 1D0#000000000000000A
(1753640797.041732) vcan0 166#D0320009
(1753640797.041736) vcan0 158#000000000000000A
(1753640797.041741) vcan0 161#000005500108000D
(1753640797.041745) vcan0 191#010090A1410030
(1753640797.041749) vcan0 133#0000000098
(1753640797.041754) vcan0 136#000200000000001B
(1753640797.041758) vcan0 13A#0000000000000019
(1753640797.041763) vcan0 13F#000000050000001F
(1753640797.041767) vcan0 164#0000C01AA8000031
(1753640797.041772) vcan0 17C#0000000010000012
(1753640797.041777) vcan0 18E#00005C
(1753640797.041781) vcan0 183#0000000A00001010
(1753640797.041786) vcan0 039#000C
(1753640797.041791) vcan0 143#6B6B00D1
(1753640797.041795) vcan0 305#8017
(1753640797.041801) vcan0 095#800007F400000008
(1753640797.041805) vcan0 166#D0320018
(1753640797.041812) vcan0 158#0000000000000019
(1753640797.041828) vcan0 161#000005500108001C
(1753640797.041832) vcan0 191#010090A1410003
(1753640797.041837) vcan0 133#00000000A7
(1753640797.041841) vcan0 136#000200000000002A
(1753640797.041846) vcan0 13A#0000000000000028
(1753640797.041851) vcan0 13F#000000050000002E
(1753640797.041860) vcan0 164#0000C01AA8000004
(1753640797.041871) vcan0 17C#0000000010000021
(1753640797.041882) vcan0 18E#00006B
(1753640797.041893) vcan0 1CF#80050000003C
(1753640797.041904) vcan0 1DC#02000039
(1753640797.041914) vcan0 183#0000000700001022
(1753640797.041924) vcan0 143#6B6B00E0
(1753640797.041935) vcan0 095#800007F400000017
(1753640797.041947) vcan0 1A4#0000000800000010
(1753640797.041958) vcan0 1AA#7FFF000000006810
(1753640797.041969) vcan0 1B0#000F0000000157
(1753640797.041979) vcan0 1D0#000000000000000A
(1753640797.041990) vcan0 166#D0320027
(1753640797.042000) vcan0 158#0000000000000028
(1753640797.042011) vcan0 161#000005500108002B
(1753640797.042023) vcan0 191#010090A1410012
(1753640797.042037) vcan0 133#00000000B6
(1753640797.042047) vcan0 136#0002000000000039
(1753640797.042057) vcan0 039#001B
(1753640797.042068) vcan0 13A#0000000000000037
(1753640797.042079) vcan0 13F#000000050000003D
(1753640797.042090) vcan0 164#0000C01AA8000013
(1753640797.042100) vcan0 17C#0000000010000030
(1753640797.042111) vcan0 18E#00007A
(1753640797.042123) vcan0 294#040B0002CF5A000E
(1753640797.042133) vcan0 21E#03E83745220601
(1753640797.042144) vcan0 183#0000000D0000103B
(1753640797.042155) vcan0 143#6B6B00FF
(1753640797.042166) vcan0 095#800007F400000026
(1753640797.042176) vcan0 166#D0320036
(1753640797.042187) vcan0 158#0000000000000037
(1753640797.042198) vcan0 161#000005500108003A
(1753640797.042208) vcan0 191#010090A1410021
(1753640797.042219) vcan0 164#0000C01AA8000022
(1753640797.042230) vcan0 133#0000000089
(1753640797.042241) vcan0 136#000200000000000C
(1753640797.042252) vcan0 13A#000000000000000A
(1753640797.042263) vcan0 13F#0000000500000000
(1753640797.042273) vcan0 17C#0000000010000003
(1753640797.042285) vcan0 18E#00004D
(1753640797.042297) vcan0 1CF#80050000000F
(1753640797.042308) vcan0 1DC#0200000C
(1753640797.042318) vcan0 183#0000000900001002
(1753640797.042329) vcan0 039#002A
(1753640797.042340) vcan0 143#6B6B00C2
(1753640797.042352) vcan0 333#0000000000001E
(1753640797.042365) vcan0 095#800007F400000035
(1753640797.042375) vcan0 1A4#000000080000002F
(1753640797.042385) vcan0 1AA#7FFF000000006720
(1753640797.042395) vcan0 1B0#000F0000000166
(1753640797.042405) vcan0 1D0#000000000000000A
(1753640797.042415) vcan0 166#D0320009
(1753640797.042425) vcan0 158#000000000000000A
(1753640797.042435) vcan0 161#000005500108000D
(1753640797.042445) vcan0 191#010090A1410030
(1753640797.042455) vcan0 133#0000000098
(1753640797.042466) vcan0 136#000200000000001B
(1753640797.042478) vcan0 13A#0000000000000019
(1753640797.042488) vcan0 13F#000000050000001F
(1753640797.042505) vcan0 164#0000C01AA8000031
(1753640797.042517) vcan0 17C#0000000010000012
(1753640797.042529) vcan0 18E#00005C
(1753640797.042541) vcan0 183#0000000600001014
(1753640797.042552) vcan0 143#6B6B00D1
(1753640797.042563) vcan0 095#800007F400000008
(1753640797.042574) vcan0 166#D0320018
(1753640797.042586) vcan0 158#0000000000000019
(1753640797.042597) vcan0 161#000005500108001C
(1753640797.042608) vcan0 191#010090A1410003
(1753640797.042618) vcan0 164#0000C01AA8000004
(1753640797.042629) vcan0 133#00000000A7
(1753640797.042640) vcan0 136#000200000000002A
(1753640797.042650) vcan0 13A#0000000000000028
(1753640797.042661) vcan0 13F#000000050000002E
(1753640797.042673) vcan0 17C#0000000010000021
(1753640797.042685) vcan0 18E#00006B
(1753640797.042696) vcan0 1CF#80050000001E
(1753640797.042708) vcan0 1DC#0200001B
(1753640797.042719) vcan0 320#000012
(1753640797.042731) vcan0 324#7465000000000E1A
(1753640797.042742) vcan0 37C#FD00FD00097F001A
(1753640797.042754) vcan0 039#0039
(1753640797.042766) vcan0 183#0000000C0000102D
(1753640797.042778) vcan0 143#6B6B00E0
(1753640797.042788) vcan0 095#800007F400000017
(1753640797.042800) vcan0 1A4#000000080000003E
(1753640797.042811) vcan0 1AA#7FFF00000000673F
(1753640797.042821) vcan0 1B0#000F0000000175
(1753640797.042832) vcan0 1D0#000000000000000A
(1753640797.042843) vcan0 166#D0320027
(1753640797.042854) vcan0 158#0000000000000028
(1753640797.042866) vcan0 161#000005500108002B
(1753640797.042878) vcan0 191#010090A1410012
(1753640797.042893) vcan0 133#00000000B6
(1753640797.042906) vcan0 136#0002000000000039
(1753640797.042918) vcan0 13A#0000000000000037
(1753640797.042930) vcan0 13F#000000050000003D
(1753640797.042943) vcan0 164#0000C01AA9000012
(1753640797.042954) vcan0 17C#0000000010000030
(1753640797.042966) vcan0 18E#00007A
(1753640797.042977) vcan0 294#040B0002CF5A001D
(1753640797.042989) vcan0 21E#03E83745220610
(1753640797.043000) vcan0 183#000000090000103F
(1753640797.043010) vcan0 143#6B6B00FF
(1753640797.043021) vcan0 039#000C
(1753640797.043032) vcan0 095#800007F400000026
(1753640797.043042) vcan0 166#D0320036
(1753640797.043054) vcan0 158#0000000000000037
(1753640797.043066) vcan0 161#000005500108003A
(1753640797.043078) vcan0 191#010090A1410021
(1753640797.043089) vcan0 164#0000C01AA9000021
(1753640797.043100) vcan0 133#0000000089
(1753640797.043113) vcan0 136#000200000000000C
(1753640797.043124) vcan0 13A#000000000000000A
(1753640797.043136) vcan0 13F#0000000500000000
(1753640797.043147) vcan0 17C#0000000010000003
(1753640797.043161) vcan0 18E#00004D
(1753640797.043172) vcan0 1CF#80050000002D
(1753640797.043184) vcan0 1DC#0200002A
(1753640797.043196) vcan0 183#0000000E0000100D
(1753640797.043208) vcan0 143#6B6B00C2
(1753640797.043220) vcan0 095#800007F400000035
(1753640797.043232) vcan0 1A4#0000000800000001
(1753640797.043243) vcan0 1AA#7FFF000000006801
(1753640797.043254) vcan0 1B0#000F0000000148
(1753640797.043266) vcan0 1D0#000000000000000A
(1753640797.043278) vcan0 166#D0320009
(1753640797.043290) vcan0 158#000000000000000A
(1753640797.043301) vcan0 161#000005500108000D
(1753640797.043312) vcan0 191#010090A1410030
(1753640797.043323) vcan0 039#001B
(1753640797.043333) vcan0 133#0000000098
(1753640797.043344) vcan0 136#000200000000001B
(1753640797.043356) vcan0 13A#0000000000000019
(1753640797.043367) vcan0 13F#000000050000001F
(1753640797.043379) vcan0 164#0000C01AA8000031
(1753640797.043391) vcan0 17C#0000000010000012
(1753640797.043403) vcan0 18E#00005C
(1753640797.043414) vcan0 309#00000000000000A2
(1753640797.043425) vcan0 183#0000000A00001010
(1753640797.043438) vcan0 143#6B6B00D1
(1753640797.043450) vcan0 095#800007F400000008
(1753640797.043457) vcan0 166#D0320018
(1753640797.043462) vcan0 158#0000000000000019
(1753640797.043467) vcan0 161#000005500108001C
(1753640797.043471) vcan0 191#010090A1410003
(1753640797.043477) vcan0 133#00000000A7
(1753640797.043488) vcan0 136#000200000000002A
(1753640797.043499) vcan0 13A#0000000000000028
(1753640797.043512) vcan0 13F#000000050000002E
(1753640797.043523) vcan0 164#0000C01AA8000004
(1753640797.043534) vcan0 17C#0000000010000021
(1753640797.043546) vcan0 18E#00006B
(1753640797.043562) vcan0 1CF#80050000003C
(1753640797.043573) vcan0 1DC#02000039
(1753640797.043583) vcan0 183#0000000700001022
(1753640797.043593) vcan0 143#6B6B00E0
(1753640797.043603) vcan0 039#002A
(1753640797.043613) vcan0 095#800007F400000017
(1753640797.043624) vcan0 1A4#0000000800000010
(1753640797.043635) vcan0 1AA#7FFF000000006810
(1753640797.043645) vcan0 1B0#000F0000000157
(1753640797.043655) vcan0 1D0#000000000000000A
(1753640797.043667) vcan0 166#D0320027
(1753640797.043678) vcan0 158#0000000000000028
(1753640797.043689) vcan0 161#000005500108002B
(1753640797.043699) vcan0 191#010090A1410012
(1753640797.043711) vcan0 133#00000000B6
(1753640797.043721) vcan0 136#0002000000000039
(1753640797.043732) vcan0 13A#0000000000000037
(1753640797.043744) vcan0 13F#000000050000003D
(1753640797.043755) vcan0 164#0000C01AA8000013
(1753640797.043766) vcan0 17C#0000000010000030
(1753640797.043777) vcan0 18E#00007A
(1753640797.043788) vcan0 294#040B0002CF5A002C
(1753640797.043798) vcan0 21E#03E8374522062F
(1753640797.043808) vcan0 183#0000000500001033
(1753640797.043819) vcan0 143#6B6B00FF
(1753640797.043830) vcan0 095#800007F400000026
(1753640797.043840) vcan0 166#D0320036
(1753640797.043850) vcan0 039#0039
(1753640797.043860) vcan0 158#0000000000000037
(1753640797.043870) vcan0 161#000005500108003A
(1753640797.043881) vcan0 191#010090A1410021
(1753640797.043891) vcan0 305#8026
(1753640797.043902) vcan0 133#0000000089
(1753640797.043912) vcan0 136#000200000000000C
(1753640797.043924) vcan0 13A#000000000000000A
(1753640797.043935) vcan0 13F#0000000500000000
(1753640797.043947) vcan0 164#0000C01AA8000022
(1753640797.043958) vcan0 17C#0000000010000003
(1753640797.043969) vcan0 18E#00004D
(1753640797.043980) vcan0 1CF#80050000000F
(1753640797.043992) vcan0 1DC#0200000C
(1753640797.044002) vcan0 183#0000000300001008
(1753640797.044013) vcan0 143#6B6B00C2
(1753640797.044024) vcan0 095#800007F400000035
(1753640797.044035) vcan0 1A4#000000080000002F
(1753640797.044046) vcan0 1AA#7FFF000000006720
(1753640797.044056) vcan0 1B0#000F0000000166
(1753640797.044066) vcan0 1D0#000000000000000A
(1753640797.044076) vcan0 166#D0320009
(1753640797.044086) vcan0 158#000000000000000A
(1753640797.044097) vcan0 161#000005500108000D
(1753640797.044108) vcan0 191#010090A1410030
(1753640797.044119) vcan0 133#0000000098
(1753640797.044133) vcan0 136#000200000000001B
(1753640797.044144) vcan0 13A#0000000000000019
(1753640797.044154) vcan0 13F#000000050000001F
(1753640797.044164) vcan0 164#0000C01AA8000031
(1753640797.044174) vcan0 17C#0000000010000012
(1753640797.044185) vcan0 18E#00005C
(1753640797.044195) vcan0 039#000C
(1753640797.044206) vcan0 183#0000000A00001010
(1753640797.044217) vcan0 143#6B6B00D1
(1753640797.044228) vcan0 095#800007F400000008
(1753640797.044239) vcan0 166#D0320018
(1753640797.044250) vcan0 158#0000000000000019
(1753640797.044261) vcan0 161#000005500108001C
(1753640797.044272) vcan0 191#010090A1410003
(1753640797.044283) vcan0 133#00000000A7
(1753640797.044294) vcan0 136#000200000000002A
(1753640797.044304) vcan0 13A#0000000000000028
(1753640797.044314) vcan0 13F#000000050000002E
(1753640797.044325) vcan0 164#0000C01AA8000004
(1753640797.044335) vcan0 17C#0000000010000021
(1753640797.044345) vcan0 18E#00006B
(1753640797.044355) vcan0 1CF#80050000001E
(1753640797.044367) vcan0 1DC#0200001B
(1753640797.044378) vcan0 183#0000000700001022
(1753640797.044389) vcan0 143#6B6B00E0
(1753640797.044404) vcan0 333#0000000000002D
(1753640797.044415) vcan0 095#800007F400000017
(1753640797.044426) vcan0 1A4#000000080000003E
(1753640797.044436) vcan0 1AA#7FFF00000000673F
(1753640797.044446) vcan0 1B0#000F0000000175
(1753640797.044458) vcan0 1D0#000000000000000A
(1753640797.044469) vcan0 039#001B
(1753640797.044481) vcan0 166#D0320027
(1753640797.044492) vcan0 158#0000000000000028
(1753640797.044503) vcan0 161#000005500108002B
(1753640797.044514) vcan0 191#010090A1410012
(1753640797.044526) vcan0 133#00000000B6
(1753640797.044537) vcan0 136#0002000000000039
(1753640797.044548) vcan0 13A#0000000000000037
(1753640797.044558) vcan0 13F#000000050000003D
(1753640797.044569) vcan0 164#0000C01AA8000013
(1753640797.044579) vcan0 17C#0000000010000030
(1753640797.044595) vcan0 18E#00007A
(1753640797.044606) vcan0 294#040B0002CF5A003B
(1753640797.044618) vcan0 21E#03E8374522063E
(1753640797.044629) vcan0 183#0000000500001033
(1753640797.044640) vcan0 143#6B6B00FF
(1753640797.044650) vcan0 095#800007F400000026
(1753640797.044661) vcan0 166#D0320036
(1753640797.044671) vcan0 158#0000000000000037
(1753640797.044683) vcan0 161#000005500108003A
(1753640797.044694) vcan0 191#010010A1410029
(1753640797.044704) vcan0 133#0000000089
(1753640797.044715) vcan0 136#000200000000000C
(1753640797.044725) vcan0 13A#000000000000000A
(1753640797.044736) vcan0 13F#0000000500000000
(1753640797.044746) vcan0 164#0000C01AA8000022
(1753640797.044757) vcan0 17C#0000000010000003
(1753640797.044767) vcan0 18E#00004D
(1753640797.044779) vcan0 1CF#80050000002D
(1753640797.044789) vcan0 1DC#0200002A
(1753640797.044800) vcan0 320#000021
(1753640797.044812) vcan0 324#7465000000000E29
(1753640797.044822) vcan0 37C#FD00FD00097F0029
(1753640797.044833) vcan0 183#0000000B00001000
(1753640797.044844) vcan0 143#6B6B00C2
(1753640797.044854) vcan0 095#800007F400000035
(1753640797.044865) vcan0 1A4#0000000800000001
(1753640797.044875) vcan0 1AA#7FFF000000006801
(1753640797.044885) vcan0 1B0#000F0000000148
(1753640797.044896) vcan0 1D0#000000000000000A
(1753640797.044908) vcan0 039#002A
(1753640797.044919) vcan0 166#D0320009
(1753640797.044929) vcan0 158#000000000000000A
(1753640797.044940) vcan0 161#000005500108000D
(1753640797.044951) vcan0 191#010010A1410038
(1753640797.044961) vcan0 133#0000000098
(1753640797.044973) vcan0 136#000200000000001B
(1753640797.044984) vcan0 13A#0000000000000019
(1753640797.044995) vcan0 13F#000000050000001F
(1753640797.045007) vcan0 164#0000C01AA8000031
(1753640797.045018) vcan0 17C#0000000010000012
(1753640797.045028) vcan0 18E#00005C
(1753640797.045040) vcan0 183#0000000800001012
(1753640797.045050) vcan0 143#6B6B00D1
(1753640797.045061) vcan0 095#800007F400000008
(1753640797.045073) vcan0 166#D0320018
(1753640797.045085) vcan0 158#0000000000000019
(1753640797.045096) vcan0 161#000005500108001C
(1753640797.045108) vcan0 191#010010A141000B
(1753640797.045119) vcan0 039#0039
(1753640797.045131) vcan0 133#00000000A7
(1753640797.045141) vcan0 136#000200000000002A
(1753640797.045152) vcan0 13A#0000000000000028
(1753640797.045164) vcan0 13F#000000050000002E
(1753640797.045176) vcan0 164#0000C01AA8000004
(1753640797.045187) vcan0 17C#0000000010000021
(1753640797.045199) vcan0 18E#00006B
(1753640797.045211) vcan0 1CF#80050000003C
(1753640797.045221) vcan0 1DC#02000039
(1753640797.045232) vcan0 183#0000000D0000102C
(1753640797.045243) vcan0 143#6B6B00E0
(1753640797.045255) vcan0 095#800007F400000017
(1753640797.045266) vcan0 1A4#0000000800000010
(1753640797.045277) vcan0 1AA#7FFF000000006810
(1753640797.045287) vcan0 1B0#000F0000000157
(1753640797.045298) vcan0 1D0#000000000000000A
(1753640797.045309) vcan0 166#D0320027
(1753640797.045320) vcan0 158#0000000000000028
(1753640797.045330) vcan0 161#000005500108002B
(1753640797.045341) vcan0 191#010010A141001A
(1753640797.045351) vcan0 133#00000000B6
(1753640797.045361) vcan0 136#0002000000000039
(1753640797.045373) vcan0 13A#0000000000000037
(1753640797.045383) vcan0 13F#000000050000003D
(1753640797.045394) vcan0 164#0000C01AA8000013
(1753640797.045404) vcan0 17C#0000000010000030
(1753640797.045416) vcan0 18E#00007A
(1753640797.045426) vcan0 294#040B0002CF5A000E
(1753640797.045437) vcan0 21E#03E83745220601
(1753640797.045449) vcan0 309#00000000000000B1
(1753640797.045460) vcan0 183#0000001100001036
(1753640797.045470) vcan0 143#6B6B00FF
(1753640797.045481) vcan0 039#000C
(1753640797.045493) vcan0 095#800007F400000026
(1753640797.045504) vcan0 166#D0320036
(1753640797.045757) vcan0 158#0000000000000037
(1753640797.045770) vcan0 161#000005500108003A
(1753640797.045782) vcan0 191#010010A1410029
(1753640797.045793) vcan0 164#0000C01AA8000022
(1753640797.045803) vcan0 133#0000000089
(1753640797.045814) vcan0 136#000200000000000C
(1753640797.045826) vcan0 13A#000000000000000A
(1753640467.139125) vcan0 244#000000015B
(1753640467.151770) vcan0 244#00000001E2
(1753640467.168134) vcan0 244#0000000147
(1753640467.184746) vcan0 244#0000000172
(1753640467.198379) vcan0 244#0000000156
(1753640467.215632) vcan0 244#000000019E
(1753640467.230616) vcan0 244#0000000123
(1753640467.245735) vcan0 244#00000001C4
(1753640467.262147) vcan0 244#0000000189
(1753640467.276467) vcan0 244#00000001AF
(1753640467.291810) vcan0 244#0000000121
(1753640467.306875) vcan0 244#000000010D
(1753640467.323371) vcan0 244#0000000105
(1753640467.338896) vcan0 244#0000000189
(1753640467.354836) vcan0 244#0000000178
(1753640467.370360) vcan0 244#0000000139
(1753640467.382030) vcan0 244#0000000178
(1753640467.394174) vcan0 244#00000001E8
(1753640467.417401) vcan0 244#000000013D
(1753640467.434198) vcan0 244#0000000100
(1753640467.448619) vcan0 244#0000000193
(1753640467.463627) vcan0 244#000000018D
(1753640467.479309) vcan0 244#0000000194
(1753640467.494625) vcan0 244#00000001DC
(1753640467.494720) vcan0 188#00000000
(1753640467.510962) vcan0 244#00000001C6
(1753640467.526191) vcan0 244#0000000183
(1753640467.542600) vcan0 244#0000000179
(1753640467.557326) vcan0 244#0000000150
(1753640467.572322) vcan0 244#000000014F
(1753640467.588155) vcan0 244#00000001FC
(1753640467.604199) vcan0 244#0000000100
(1753640467.619152) vcan0 244#00000001C8
(1753640467.636008) vcan0 244#00000001FA
(1753640467.650882) vcan0 244#0000000164
(1753640467.667109) vcan0 244#00000001D6
(1753640467.682740) vcan0 244#000000016D
(1753640467.698962) vcan0 244#000000019E
(1753640467.713361) vcan0 244#0000000196
(1753640467.729381) vcan0 244#000000014D
(1753640467.744752) vcan0 244#00000001C3
(1753640467.760131) vcan0 244#0000000161
(1753640467.775977) vcan0 244#000000010B
(1753640467.790785) vcan0 244#00000001EC
(1753640467.805907) vcan0 244#0000000103
(1753640467.820825) vcan0 244#00000001B1
(1753640467.836484) vcan0 244#0000000100
(1753640467.852684) vcan0 244#0000000159
(1753640467.868575) vcan0 244#0000000144
(1753640467.883036) vcan0 244#0000000185
(1753640467.899521) vcan0 244#0000000133
(1753640467.913899) vcan0 244#00000001E1
(1753640467.929105) vcan0 244#00000001B5
(1753640467.945439) vcan0 244#00000001DD
(1753640467.960972) vcan0 244#0000000191
(1753640467.975268) vcan0 244#00000001AD
(1753640467.994327) vcan0 244#000000013F
(1753640468.007594) vcan0 244#00000001B0
(1753640468.007655) vcan0 188#00000000
(1753640468.021317) vcan0 244#00000001C2
(1753640468.036910) vcan0 244#00000001AC
(1753640468.054514) vcan0 244#000000011C
(1753640468.069097) vcan0 244#00000001DA
(1753640468.084718) vcan0 244#00000001C8
(1753640468.102171) vcan0 244#0000000100
(1753640468.116755) vcan0 244#00000001F1
(1753640468.133132) vcan0 244#00000001C9
(1753640468.147234) vcan0 244#0000000173
(1753640468.163201) vcan0 244#00000001FA
(1753640468.179057) vcan0 244#0000000103
(1753640468.195333) vcan0 244#0000000125
(1753640468.210021) vcan0 244#0000000164
(1753640468.225550) vcan0 244#00000001E3
(1753640468.240738) vcan0 244#00000001A3
(1753640468.259595) vcan0 244#000000010C
(1753640468.272125) vcan0 244#000000016C
(1753640468.287540) vcan0 244#0000000142
(1753640468.303489) vcan0 244#00000001D9
(1753640468.318929) vcan0 244#0000000189
(1753640468.334413) vcan0 244#00000001B8
(1753640468.349741) vcan0 244#00000001BA
(1753640468.365511) vcan0 244#00000001AA
(1753640468.380147) vcan0 244#0000000108
(1753640468.395222) vcan0 244#00000001B7
(1753640468.412495) vcan0 244#000000017B
(1753640468.432806) vcan0 244#0000000182
(1753640468.458186) vcan0 244#00000001E5
(1753640468.473507) vcan0 244#0000000143
(1753640468.488904) vcan0 244#00000001DD
(1753640468.504923) vcan0 244#00000001B1
(1753640468.520421) vcan0 244#0000000122
(1753640468.520451) vcan0 188#00000000
(1753640468.535900) vcan0 244#0000000125
(1753640468.551231) vcan0 244#00000001E9
(1753640468.567237) vcan0 244#0000000199
(1753640468.581966) vcan0 244#000000018A
(1753640468.598273) vcan0 244#0000000186
(1753640468.615163) vcan0 244#0000000126
(1753640468.629883) vcan0 244#00000001EF
(1753640468.648695) vcan0 244#0000000115
(1753640468.675504) vcan0 244#000000013D
(1753640468.691985) vcan0 244#000000010F
(1753640468.706384) vcan0 244#0000000156
(1753640468.722420) vcan0 244#000000013D
(1753640468.738219) vcan0 244#000000010E
(1753640468.753381) vcan0 244#0000000196
(1753640468.769695) vcan0 244#0000000166
(1753640468.784004) vcan0 244#0000000196
(1753640468.799263) vcan0 244#00000001F4
(1753640468.815283) vcan0 244#00000001DB
(1753640468.831279) vcan0 244#00000001BB
(1753640468.845754) vcan0 244#0000000149
(1753640468.861891) vcan0 244#0000000131
(1753640468.877733) vcan0 244#0000000182
(1753640468.893992) vcan0 244#00000001EE
(1753640468.908957) vcan0 244#0000000186
(1753640468.925315) vcan0 244#0000000118
(1753640468.936332) vcan0 244#000000010C
(1753640468.956269) vcan0 244#0000000187
(1753640468.971995) vcan0 244#00000001F9
(1753640468.988351) vcan0 244#0000000186
(1753640469.005093) vcan0 244#0000000153
(1753640469.021948) vcan0 244#00000001B8
(1753640469.021985) vcan0 188#00000000
(1753640469.035976) vcan0 244#00000001C7
(1753640469.051028) vcan0 244#00000001DA
(1753640469.066687) vcan0 244#00000001ED
(1753640469.081790) vcan0 244#000000016D
(1753640469.096907) vcan0 244#000000017C
(1753640469.112969) vcan0 244#0000000130
(1753640469.129174) vcan0 244#00000001F9
(1753640469.143545) vcan0 244#000000012D
(1753640469.159242) vcan0 244#000000018A
(1753640469.174910) vcan0 244#0000000124
(1753640469.191323) vcan0 244#0000000120
(1753640469.207058) vcan0 244#0000000164
(1753640469.229474) vcan0 244#00000001CF
(1753640469.254276) vcan0 244#00000001D2
(1753640469.270028) vcan0 244#0000000167
(1753640469.284706) vcan0 244#0000000101
(1753640469.300503) vcan0 244#0000000164
(1753640469.316224) vcan0 244#000000015D
(1753640469.331475) vcan0 244#00000001D9
(1753640469.346410) vcan0 244#0000000149
(1753640469.361741) vcan0 244#00000001AC
(1753640469.377138) vcan0 244#00000001F7
(1753640469.391621) vcan0 244#0000000153
(1753640469.402663) vcan0 244#000000014D
(1753640469.423547) vcan0 244#00000001AC
(1753640469.439590) vcan0 244#00000001FC
(1753640469.455038) vcan0 244#00000001F0
(1753640469.470281) vcan0 244#0000000141
(1753640469.486509) vcan0 244#000000019E
(1753640469.501727) vcan0 244#00000001E0
(1753640469.516424) vcan0 244#0000000115
(1753640469.532370) vcan0 244#0000000101
(1753640469.532454) vcan0 188#00000000
(1753640469.548019) vcan0 244#0000000156
(1753640469.563917) vcan0 244#000000011F
(1753640469.578656) vcan0 244#000000010A
(1753640469.594366) vcan0 244#00000001EF
(1753640469.609995) vcan0 244#00000001EC
(1753640469.627620) vcan0 244#000000011F
(1753640469.640713) vcan0 244#00000001B9
(1753640469.656041) vcan0 244#0000000112
(1753640469.671063) vcan0 244#000000015F
(1753640469.687108) vcan0 244#00000001F6
(1753640469.702012) vcan0 244#0000000192
(1753640469.717443) vcan0 244#000000014A
(1753640469.734455) vcan0 244#0000000165
(1753640469.749196) vcan0 244#0000000114
(1753640469.767143) vcan0 244#00000001E9
(1753640469.780053) vcan0 244#00000001E4
(1753640469.794812) vcan0 244#000000010F
(1753640469.810562) vcan0 244#00000001DE
(1753640469.826456) vcan0 244#0000000149
(1753640469.842716) vcan0 244#00000001D7
(1753640469.855559) vcan0 244#0000000172
(1753640469.882376) vcan0 244#0000000139
(1753640469.888871) vcan0 244#00000001C1
(1753640469.905127) vcan0 244#00000001BA
(1753640469.919265) vcan0 244#00000001D2
(1753640469.932535) vcan0 244#000000014D
(1753640469.950154) vcan0 244#0000000118
(1753640469.965541) vcan0 244#000000018C
(1753640469.981956) vcan0 244#00000001CA
(1753640469.996034) vcan0 244#00000001CA
(1753640470.011386) vcan0 244#00000001A9
(1753640470.030238) vcan0 244#000000013D
(1753640470.042767) vcan0 244#0000000186
(1753640470.042829) vcan0 188#00000000
(1753640470.055011) vcan0 244#00000001D0
(1753640470.073382) vcan0 244#00000001C9
(1753640470.088392) vcan0 244#000000018E
(1753640470.104859) vcan0 244#000000010B
(1753640470.120504) vcan0 244#000000019E
(1753640470.134910) vcan0 244#00000001BC
(1753640470.151110) vcan0 244#0000000108
(1753640470.166284) vcan0 244#00000001B0
(1753640470.182234) vcan0 244#00000001EB
(1753640470.196477) vcan0 244#00000001EF
(1753640470.212001) vcan0 244#0000000131
(1753640470.227295) vcan0 244#000000019C
(1753640470.242645) vcan0 244#00000001F4
(1753640470.258160) vcan0 244#0000000131
(1753640470.273387) vcan0 244#00000001C7
(1753640470.288265) vcan0 244#000000016F
(1753640470.307074) vcan0 244#0000000118
(1753640470.318883) vcan0 244#000000013A
(1753640470.334253) vcan0 244#00000001FC
(1753640470.350757) vcan0 244#00000001EE
(1753640470.365474) vcan0 244#0000000117
(1753640470.381808) vcan0 244#0000000153
(1753640470.413882) vcan0 244#00000001DD
(1753640470.425523) vcan0 244#0000000101
(1753640470.445951) vcan0 244#0000000188
(1753640470.458925) vcan0 244#0000000105
(1753640470.474222) vcan0 244#00000001E8
(1753640470.504406) vcan0 244#000000016E
(1753640470.519979) vcan0 244#000000014B
(1753640470.535011) vcan0 244#00000001C2
(1753640470.551267) vcan0 244#0000000191
(1753640470.551643) vcan0 188#00000000
(1753640470.566637) vcan0 244#00000001B8
(1753640470.582309) vcan0 244#00000001A7
(1753640470.597644) vcan0 244#000000013A
(1753640470.613558) vcan0 244#000000015F
(1753640470.629479) vcan0 244#0000000160
(1753640470.644545) vcan0 244#0000000194
(1753640470.660073) vcan0 244#0000000184
(1753640470.675101) vcan0 244#000000012D
(1753640470.690373) vcan0 244#000000019B
(1753640470.706106) vcan0 244#0000000190
(1753640470.722401) vcan0 244#000000017B
(1753640470.736957) vcan0 244#0000000152
(1753640470.752843) vcan0 244#0000000120
(1753640470.768198) vcan0 244#0000000148
(1753640470.783760) vcan0 244#00000001B7
(1753640470.799982) vcan0 244#00000001AC
(1753640470.818337) vcan0 244#00000001FD
(1753640470.831778) vcan0 244#000000010D
(1753640470.846459) vcan0 244#0000000144
(1753640470.861789) vcan0 244#0000000189
(1753640470.877637) vcan0 244#00000001C2
(1753640470.893182) vcan0 244#00000001B4
(1753640470.908954) vcan0 244#0000000102
(1753640470.924882) vcan0 244#00000001DF
(1753640470.939819) vcan0 244#00000001D8
(1753640470.955457) vcan0 244#00000001A4
(1753640470.970682) vcan0 244#0000000164
(1753640470.986741) vcan0 244#00000001E3
(1753640471.003161) vcan0 244#000000010B
(1753640471.018735) vcan0 244#0000000141
(1753640471.034139) vcan0 244#0000000190
(1753640471.053055) vcan0 244#00000001DF
(1753640471.053139) vcan0 188#00000000
(1753640471.064664) vcan0 244#0000000104
(1753640471.080320) vcan0 244#00000001E6
(1753640471.111238) vcan0 244#000000015B
(1753640471.142138) vcan0 244#0000000182
(1753640471.157818) vcan0 244#0000000116
(1753640471.172361) vcan0 244#00000001FB
(1753640471.187965) vcan0 244#000000014B
(1753640471.204512) vcan0 244#000000014D
(1753640471.219340) vcan0 244#0000000127
(1753640471.235179) vcan0 244#0000000162
(1753640471.252136) vcan0 244#00000001BD
(1753640471.267259) vcan0 244#0000000165
(1753640471.285402) vcan0 244#0000000147
(1753640471.313357) vcan0 244#0000000190
(1753640471.329290) vcan0 244#00000001AD
(1753640471.344355) vcan0 244#0000000161
(1753640471.360251) vcan0 244#0000000139
(1753640471.375616) vcan0 244#000000010D
(1753640471.391093) vcan0 244#0000000187
(1753640471.406977) vcan0 244#0000000117
(1753640471.419220) vcan0 244#000000015E
(1753640471.437721) vcan0 244#0000000125
(1753640471.453011) vcan0 244#0000000194
(1753640471.468262) vcan0 244#0000000152
(1753640471.484133) vcan0 244#00000001E5
(1753640471.499837) vcan0 244#0000000113
(1753640471.513823) vcan0 244#0000000151
(1753640471.529048) vcan0 244#000000010D
(1753640471.544204) vcan0 244#0000000172
(1753640471.560212) vcan0 244#00000001FD
(1753640471.560248) vcan0 188#00000000
(1753640471.575391) vcan0 244#0000000108
(1753640471.588289) vcan0 244#0000000112
(1753640471.607237) vcan0 244#0000000181
(1753640471.623293) vcan0 244#0000000180
(1753640471.639112) vcan0 244#0000000130
(1753640471.654441) vcan0 244#00000001B3
(1753640471.669852) vcan0 244#0000000118
(1753640471.685737) vcan0 244#0000000198
(1753640471.701826) vcan0 244#000000011D
(1753640471.716463) vcan0 244#00000001DC
(1753640471.732556) vcan0 244#0000000116
(1753640471.754571) vcan0 244#0000000177
(1753640471.779316) vcan0 244#00000001DD
(1753640471.795346) vcan0 244#000000017B
(1753640471.810996) vcan0 244#00000001A3
(1753640471.827406) vcan0 244#00000001A6
(1753640471.841338) vcan0 244#0000000179
(1753640471.856722) vcan0 244#0000000179
(1753640471.872192) vcan0 244#0000000150
(1753640471.887285) vcan0 244#000000019C
(1753640471.903332) vcan0 244#00000001AD
(1753640471.919176) vcan0 244#00000001CB
(1753640471.934321) vcan0 244#00000001DD
(1753640471.951351) vcan0 244#000000015C
(1753640471.965438) vcan0 244#0000000139
(1753640471.981415) vcan0 244#00000001DE
(1753640471.996144) vcan0 244#000000010C
(1753640472.012169) vcan0 244#00000001A8
(1753640472.027054) vcan0 244#0000000107
(1753640472.042845) vcan0 244#000000011A
(1753640472.057994) vcan0 244#00000001C1
(1753640472.073252) vcan0 244#00000001AD
(1753640472.073279) vcan0 188#00000000
(1753640472.088831) vcan0 244#0000000149
(1753640472.104054) vcan0 244#00000001DE
(1753640472.119705) vcan0 244#00000001C9
(1753640472.134565) vcan0 244#0000000196
(1753640472.149916) vcan0 244#00000001AE
(1753640472.165106) vcan0 244#000000017E
(1753640472.180739) vcan0 244#00000001CB
(1753640472.195587) vcan0 244#0000000168
(1753640472.212956) vcan0 244#0000000177
(1753640472.243209) vcan0 244#000000017E
(1753640472.258455) vcan0 244#000000017B
(1753640472.274173) vcan0 244#00000001F0
(1753640472.290447) vcan0 244#0000000114
(1753640472.301867) vcan0 244#00000001BA
(1753640472.321986) vcan0 244#00000001B3
(1753640472.337304) vcan0 244#0000000129
(1753640472.354719) vcan0 244#000000014E
(1753640472.368513) vcan0 244#00000001A0
(1753640472.384627) vcan0 244#0000000161
(1753640472.400824) vcan0 244#0000000117
(1753640472.411696) vcan0 244#0000000187
(1753640472.422526) vcan0 244#000000015A
(1753640472.447518) vcan0 244#0000000110
(1753640472.462520) vcan0 244#00000001DC
(1753640472.477836) vcan0 244#00000001D6
(1753640472.493189) vcan0 244#0000000139
(1753640472.508547) vcan0 244#0000000120
(1753640472.524550) vcan0 244#000000017A
(1753640472.539912) vcan0 244#0000000170
(1753640472.555013) vcan0 244#000000017F
(1753640472.571468) vcan0 244#0000000142
(1753640472.586851) vcan0 244#0000000155
(1753640472.586925) vcan0 188#00000000
(1753640472.599806) vcan0 244#0000000179
(1753640472.618344) vcan0 244#00000001A9
(1753640472.632878) vcan0 244#0000000189
(1753640472.647310) vcan0 244#00000001C3
(1753640472.663462) vcan0 244#0000000142
(1753640472.679153) vcan0 244#0000000170
(1753640472.695058) vcan0 244#0000000146
(1753640472.709836) vcan0 244#0000000155
(1753640472.725036) vcan0 244#000000018A
(1753640472.741261) vcan0 244#000000015D
(1753640472.753347) vcan0 244#0000000162
(1753640472.764977) vcan0 244#000000013B
(1753640472.792407) vcan0 244#0000000133
(1753640472.804401) vcan0 244#00000001B2
(1753640472.820223) vcan0 244#0000000181
(1753640472.832324) vcan0 244#000000019F
(1753640472.851259) vcan0 244#000000016E
(1753640472.866896) vcan0 244#0000000180
(1753640472.882204) vcan0 244#0000000152
(1753640472.897745) vcan0 244#0000000191
(1753640472.912182) vcan0 244#00000001F6
(1753640472.923112) vcan0 244#0000000180
(1753640472.943234) vcan0 244#0000000109
(1753640472.957153) vcan0 244#00000001E8
(1753640472.974037) vcan0 244#0000000155
(1753640472.990053) vcan0 244#0000000146
(1753640473.004895) vcan0 244#00000001FF
(1753640473.018029) vcan0 244#0000000161
(1753640473.036872) vcan0 244#00000001E1
(1753640473.051891) vcan0 244#000000015D
(1753640473.068197) vcan0 244#0000000154
(1753640473.083960) vcan0 244#0000000176
(1753640473.095191) vcan0 244#00000001A3
(1753640473.095263) vcan0 188#00000000
(1753640473.114082) vcan0 244#00000001F9
(1753640473.128689) vcan0 244#0000000155
(1753640473.144571) vcan0 244#0000000102
(1753640473.160131) vcan0 244#0000000105
(1753640473.175324) vcan0 244#0000000138
(1753640473.191452) vcan0 244#00000001F4
(1753640473.206841) vcan0 244#00000001AB
(1753640473.222676) vcan0 244#0000000133
(1753640473.238876) vcan0 244#00000001F3
(1753640473.253234) vcan0 244#0000000183
(1753640473.268923) vcan0 244#0000000183
(1753640473.283880) vcan0 244#0000000141
(1753640473.299210) vcan0 244#0000000120
(1753640473.314963) vcan0 244#00000001BE
(1753640473.331211) vcan0 244#000000014B
(1753640473.347290) vcan0 244#00000001BC
(1753640473.363720) vcan0 244#00000001AE
(1753640473.378396) vcan0 244#00000001F8
(1753640473.393383) vcan0 244#000000014E
(1753640473.410548) vcan0 244#00000001CA
(1753640473.421377) vcan0 244#000000011E
(1753640473.441745) vcan0 244#00000001D4
(1753640473.456716) vcan0 244#000000013B
(1753640473.472057) vcan0 244#0000000101
(1753640473.483064) vcan0 244#00000001EF
(1753640473.503478) vcan0 244#0000000139
(1753640473.519303) vcan0 244#00000001FE
(1753640473.536694) vcan0 244#00000001E9
(1753640473.550898) vcan0 244#00000001AA
(1753640473.563461) vcan0 244#0000000110
(1753640473.575619) vcan0 244#00000001A9
(1753640473.594913) vcan0 244#000000013F
(1753640473.603243) vcan0 188#00000000
(1753640473.613479) vcan0 244#0000000102
(1753640473.630344) vcan0 244#0000000147
(1753640473.650470) vcan0 244#00000001E1
(1753640473.672956) vcan0 244#00000001D8
(1753640473.691344) vcan0 244#00000001D8
(1753640473.702409) vcan0 244#00000001A9
(1753640473.721637) vcan0 244#0000000127
(1753640473.737425) vcan0 244#00000001E8
(1753640473.753181) vcan0 244#0000000147
(1753640473.770527) vcan0 244#0000000146
(1753640473.784497) vcan0 244#00000001C6
(1753640473.797505) vcan0 244#0000000104
(1753640473.815534) vcan0 244#00000001A2
(1753640473.826689) vcan0 244#000000012E
(1753640473.841491) vcan0 244#000000015C
(1753640473.860992) vcan0 244#000000016C
(1753640473.871551) vcan0 244#00000001C3
(1753640473.892078) vcan0 244#0000000148
(1753640473.907859) vcan0 244#0000000151
(1753640473.924275) vcan0 244#000000017E
(1753640473.938982) vcan0 244#00000001B9
(1753640473.955203) vcan0 244#0000000129
(1753640473.970264) vcan0 244#000000019B
(1753640473.985649) vcan0 244#0000000144
(1753640474.002304) vcan0 244#000000017F
(1753640474.016676) vcan0 244#0000000135
(1753640474.033681) vcan0 244#0000000149
(1753640474.049042) vcan0 244#00000001C6
(1753640474.064696) vcan0 244#00000001E3
(1753640474.081043) vcan0 244#000000018F
(1753640474.096006) vcan0 244#0000000121
(1753640474.111779) vcan0 244#0000000101
(1753640474.111942) vcan0 188#00000000
(1753640474.126919) vcan0 244#0000000173
(1753640474.142514) vcan0 244#000000011F
(1753640474.158300) vcan0 244#0000000176
(1753640474.173636) vcan0 244#0000000168
(1753640474.188696) vcan0 244#0000000165
(1753640474.203033) vcan0 244#0000000139
(1753640474.219628) vcan0 244#00000001EC
(1753640474.235760) vcan0 244#0000000148
(1753640474.250453) vcan0 244#000000011D
(1753640474.265995) vcan0 244#000000014E
(1753640474.282392) vcan0 244#00000001EA
(1753640474.299563) vcan0 244#000000015B
(1753640474.313644) vcan0 244#0000000119
(1753640474.329652) vcan0 244#0000000162
(1753640474.344224) vcan0 244#00000001E3
(1753640474.360280) vcan0 244#00000001F9
(1753640474.375517) vcan0 244#0000000147
(1753640474.391038) vcan0 244#00000001D1
(1753640474.406262) vcan0 244#0000000113
(1753640474.422136) vcan0 244#000000011C
(1753640474.438650) vcan0 244#0000000197
(1753640474.453954) vcan0 244#00000001CB
(1753640474.469716) vcan0 244#000000017D
(1753640474.484677) vcan0 244#0000000131
(1753640474.499290) vcan0 244#000000019D
(1753640474.514609) vcan0 244#0000000164
(1753640474.529760) vcan0 244#0000000113
(1753640474.547693) vcan0 244#000000019C
(1753640474.561518) vcan0 244#000000018F
(1753640474.577380) vcan0 244#00000001D2
(1753640474.592879) vcan0 244#000000013A
(1753640474.608450) vcan0 244#000000011E
(1753640474.624212) vcan0 244#000000010D
(1753640474.624289) vcan0 188#00000000
(1753640474.639348) vcan0 244#000000014C
(1753640474.654531) vcan0 244#0000000122
(1753640474.670898) vcan0 244#000000018E
(1753640474.686275) vcan0 244#00000001A3
(1753640474.701840) vcan0 244#00000001AB
(1753640474.717494) vcan0 244#00000001F2
(1753640474.733402) vcan0 244#000000015C
(1753640474.749117) vcan0 244#0000000115
(1753640474.764087) vcan0 244#00000001F8
(1753640474.779091) vcan0 244#00000001D4
(1753640474.794589) vcan0 244#000000014B
(1753640474.810193) vcan0 244#00000001F8
(1753640474.825678) vcan0 244#0000000153
(1753640474.907130) vcan0 244#00000001E1
(1753640474.933242) vcan0 244#00000001DC
(1753640474.954943) vcan0 244#00000001C1
(1753640474.979680) vcan0 244#0000000110
(1753640474.994695) vcan0 244#0000000115
(1753640475.005837) vcan0 244#0000000174
(1753640475.027655) vcan0 244#0000000178
(1753640475.042025) vcan0 244#000000012E
(1753640475.057356) vcan0 244#0000000141
(1753640475.073325) vcan0 244#0000000131
(1753640475.088074) vcan0 244#000000012E
(1753640475.103818) vcan0 244#00000001F2
(1753640475.118881) vcan0 244#000000016A
(1753640475.134450) vcan0 244#00000001DA
(1753640475.134480) vcan0 188#00000000
(1753640475.150170) vcan0 244#00000001E0
(1753640475.165152) vcan0 244#0000000140
(1753640475.180472) vcan0 244#0000000114
(1753640475.195570) vcan0 244#0000000109
(1753640475.210720) vcan0 244#00000001AA
(1753640475.226241) vcan0 244#00000001D3
(1753640475.241852) vcan0 244#0000000133
(1753640475.257572) vcan0 244#00000001E9
(1753640475.272065) vcan0 244#000000019A
(1753640475.287685) vcan0 244#00000001C2
(1753640475.303069) vcan0 244#00000001E2
(1753640475.314681) vcan0 244#000000014B
(1753640475.334472) vcan0 244#00000001D7
(1753640475.354512) vcan0 244#00000001D2
(1753640475.365174) vcan0 244#0000000133
(1753640475.380433) vcan0 244#000000016C
(1753640475.395668) vcan0 244#00000001C2
(1753640475.411267) vcan0 244#0000000130
(1753640475.426644) vcan0 244#0000000164
(1753640475.439125) vcan0 244#000000019F
(1753640475.457296) vcan0 244#000000015D
(1753640475.472822) vcan0 244#0000000115
(1753640475.489191) vcan0 244#000000012E
(1753640475.504342) vcan0 244#00000001F1
(1753640475.519700) vcan0 244#00000001E1
(1753640475.535176) vcan0 244#000000018C
(1753640475.550728) vcan0 244#00000001BF
(1753640475.567060) vcan0 244#000000012B
(1753640475.582278) vcan0 244#000000011A
(1753640475.598574) vcan0 244#00000001C6
(1753640475.614982) vcan0 244#0000000121
(1753640475.628732) vcan0 244#0000000116
(1753640475.636505) vcan0 188#00000000
(1753640475.642516) vcan0 244#0000000122
(1753640475.660352) vcan0 244#00000001D2
(1753640475.675990) vcan0 244#00000001BC
(1753640475.691298) vcan0 244#0000000169
(1753640475.706730) vcan0 244#0000000141
(1753640475.721929) vcan0 244#000000010B
(1753640475.736922) vcan0 244#00000001EE
(1753640475.752558) vcan0 244#0000000178
(1753640475.768554) vcan0 244#00000001EA
(1753640475.783486) vcan0 244#00000001EC
(1753640475.799663) vcan0 244#00000001E0
(1753640475.814755) vcan0 244#000000015D
(1753640475.829878) vcan0 244#000000015A
(1753640475.845742) vcan0 244#000000012F
(1753640475.860689) vcan0 244#0000000166
(1753640475.876310) vcan0 244#0000000138
(1753640475.894581) vcan0 244#000000017D
(1753640475.907324) vcan0 244#0000000166
(1753640475.922220) vcan0 244#00000001F3
(1753640475.937425) vcan0 244#0000000177
(1753640475.954015) vcan0 244#0000000198
(1753640475.969772) vcan0 244#00000001BE
(1753640475.984294) vcan0 244#0000000104
(1753640475.999447) vcan0 244#0000000115
(1753640476.014876) vcan0 244#00000001E7
(1753640476.030704) vcan0 244#00000001E0
(1753640476.046165) vcan0 244#000000015C
(1753640476.061228) vcan0 244#000000011D
(1753640476.077709) vcan0 244#0000000142
(1753640476.093760) vcan0 244#000000011B
(1753640476.109620) vcan0 244#00000001D1
(1753640476.124596) vcan0 244#0000000181
(1753640476.140344) vcan0 244#000000018A
(1753640476.140389) vcan0 188#00000000
(1753640476.153212) vcan0 244#00000001A9
(1753640476.171873) vcan0 244#0000000187
(1753640476.187293) vcan0 244#00000001E8
(1753640476.203136) vcan0 244#00000001D1
(1753640476.218965) vcan0 244#0000000111
(1753640476.233673) vcan0 244#000000017C
(1753640476.248965) vcan0 244#0000000157
(1753640476.264178) vcan0 244#000000019B
(1753640476.280297) vcan0 244#0000000178
(1753640476.295053) vcan0 19B#00000F000000
(1753640476.295131) vcan0 244#0000000151
(1753640476.309821) vcan0 244#0000000192
(1753640476.325067) vcan0 244#0000000144
(1753640476.340822) vcan0 244#00000001D3
(1753640476.355672) vcan0 244#00000001E7
(1753640476.371624) vcan0 244#000000015D
(1753640476.386582) vcan0 244#0000000154
(1753640476.401607) vcan0 244#0000000177
(1753640476.418998) vcan0 244#00000001F0
(1753640476.429797) vcan0 244#0000000189
(1753640476.440454) vcan0 244#00000001D2
(1753640476.465531) vcan0 244#0000000110
(1753640476.480172) vcan0 244#00000001BA
(1753640476.496840) vcan0 244#00000001D5
(1753640476.512150) vcan0 244#000000018D
(1753640476.528268) vcan0 244#00000001B4
(1753640476.542877) vcan0 244#000000018F
(1753640476.562079) vcan0 244#00000001EB
(1753640476.574606) vcan0 244#00000001EB
(1753640476.585309) vcan0 244#000000017C
(1753640476.604841) vcan0 244#0000000109
(1753640476.620057) vcan0 244#0000000191
(1753640476.635375) vcan0 244#0000000141
(1753640476.650406) vcan0 244#000000012C
(1753640476.650506) vcan0 188#00000000
(1753640476.666023) vcan0 244#0000000195
(1753640476.680812) vcan0 244#00000001AF
(1753640476.696964) vcan0 244#00000001DA
(1753640476.712336) vcan0 244#00000001AE
(1753640476.727693) vcan0 244#00000001A3
(1753640476.744171) vcan0 244#0000000191
(1753640476.759218) vcan0 244#00000001C2
(1753640476.775348) vcan0 244#0000000110
(1753640476.790371) vcan0 244#00000001C0
(1753640476.805995) vcan0 244#0000000122
(1753640476.821704) vcan0 244#00000001FF
(1753640476.837168) vcan0 244#00000001C3
(1753640476.853009) vcan0 244#000000019C
(1753640476.869692) vcan0 244#00000001F0
(1753640476.883749) vcan0 244#00000001D6
(1753640476.898953) vcan0 244#0000000128
(1753640476.914431) vcan0 244#0000000116
(1753640476.934818) vcan0 244#0000000144
(1753640476.960312) vcan0 244#00000001D6
(1753640476.976303) vcan0 244#00000001EC
(1753640476.992127) vcan0 244#0000000135
(1753640477.007671) vcan0 244#00000001FF
(1753640477.023435) vcan0 244#00000001BC
(1753640477.037931) vcan0 244#0000000161
(1753640477.052706) vcan0 244#0000000188
(1753640477.068919) vcan0 244#0000000143
(1753640477.084880) vcan0 244#00000001F9
(1753640477.100039) vcan0 244#00000001AD
(1753640477.116848) vcan0 244#0000000172
(1753640477.131596) vcan0 244#00000001D7
(1753640477.147142) vcan0 244#0000000176
(1753640477.162712) vcan0 244#0000000122
(1753640477.162798) vcan0 188#00000000
(1753640477.175160) vcan0 244#0000000122
(1753640477.187623) vcan0 244#000000016C
(1753640477.209021) vcan0 244#000000016D
(1753640477.223788) vcan0 244#00000001E1
(1753640477.239367) vcan0 244#000000019A
(1753640477.252971) vcan0 244#000000014B
(1753640477.270000) vcan0 244#000000010D
(1753640477.285552) vcan0 244#0000000176
(1753640477.301403) vcan0 244#000000018A
(1753640477.318175) vcan0 244#00000001A9
(1753640477.333129) vcan0 244#00000001D5
(1753640477.348095) vcan0 244#00000001C3
(1753640477.365625) vcan0 244#0000000136
(1753640477.371098) vcan0 19B#00000F000000
(1753640477.379535) vcan0 244#0000000147
(1753640477.395883) vcan0 244#0000000188
(1753640477.410311) vcan0 244#0000000169
(1753640477.427062) vcan0 244#00000001A9
(1753640477.441190) vcan0 244#00000001FA
(1753640477.455801) vcan0 244#0000000171
(1753640477.475582) vcan0 244#00000001FA
(1753640477.490699) vcan0 244#0000000116
(1753640477.505810) vcan0 244#00000001CA
(1753640477.521499) vcan0 244#00000001F8
(1753640477.536722) vcan0 244#00000001BA
(1753640477.551878) vcan0 244#00000001AA
(1753640477.566884) vcan0 244#000000010E
(1753640477.582630) vcan0 244#0000000103
(1753640477.598243) vcan0 244#0000000137
(1753640477.614497) vcan0 244#0000000182
(1753640477.630384) vcan0 244#0000000195
(1753640477.645935) vcan0 244#00000001F7
(1753640477.661291) vcan0 244#00000001C1
(1753640477.667324) vcan0 188#00000000
(1753640477.675104) vcan0 244#000000011C
(1753640477.692166) vcan0 244#0000000180
(1753640477.706014) vcan0 244#00000001BE
(1753640477.722281) vcan0 244#0000000152
(1753640477.738052) vcan0 244#00000001E7
(1753640477.753081) vcan0 244#0000000169
(1753640477.768511) vcan0 244#00000001E4
(1753640477.784173) vcan0 244#000000010E
(1753640477.800225) vcan0 244#000000012D
(1753640477.816045) vcan0 244#00000001D5
(1753640477.831190) vcan0 19B#00000F000000
(1753640477.831256) vcan0 244#00000001ED
(1753640477.843852) vcan0 244#0000000180
(1753640477.861267) vcan0 244#0000000139
(1753640477.877225) vcan0 244#0000000111
(1753640477.892674) vcan0 244#0000000185
(1753640477.907961) vcan0 244#00000001FE
(1753640477.924274) vcan0 244#0000000128
(1753640477.939385) vcan0 244#0000000112
(1753640477.954761) vcan0 244#0000000195
(1753640477.975665) vcan0 244#000000015A
(1753640478.002039) vcan0 244#0000000179
(1753640478.018989) vcan0 244#00000001AA
(1753640478.033897) vcan0 244#00000001B1
(1753640478.048753) vcan0 244#00000001BF
(1753640478.065825) vcan0 244#0000000154
(1753640478.080260) vcan0 244#00000001D0
(1753640478.095444) vcan0 244#0000000113
(1753640478.112567) vcan0 244#00000001F2
(1753640478.142984) vcan0 244#0000000101
(1753640478.158111) vcan0 244#0000000126
(1753640478.173587) vcan0 244#000000014F
(1753640478.173707) vcan0 188#00000000
(1753640478.187635) vcan0 244#00000001BA
(1753640478.206441) vcan0 244#0000000142
(1753640478.219997) vcan0 244#000000012A
(1753640478.234940) vcan0 244#0000000129
(1753640478.250767) vcan0 244#0000000146
(1753640478.266045) vcan0 244#00000001AF
(1753640478.281109) vcan0 244#00000001AA
(1753640478.297107) vcan0 244#0000000171
(1753640478.312090) vcan0 244#0000000179
(1753640478.327214) vcan0 244#000000011C
(1753640478.343853) vcan0 244#00000001FA
(1753640478.360099) vcan0 244#0000000196
(1753640478.375269) vcan0 244#0000000172
(1753640478.390102) vcan0 244#0000000127
(1753640478.405628) vcan0 244#0000000136
(1753640478.421464) vcan0 244#000000010C
(1753640478.433099) vcan0 244#00000001EC
(1753640478.452203) vcan0 244#00000001E5
(1753640478.465335) vcan0 244#000000013D
(1753640478.481672) vcan0 244#00000001E3
(1753640478.498767) vcan0 244#00000001FA
(1753640478.528462) vcan0 244#0000000184
(1753640478.547633) vcan0 244#00000001B0
(1753640478.561974) vcan0 244#00000001D6
(1753640478.578842) vcan0 244#0000000175
(1753640478.593793) vcan0 244#000000011C
(1753640478.609077) vcan0 244#0000000105
(1753640478.623527) vcan0 244#0000000104
(1753640478.640141) vcan0 244#0000000139
(1753640478.655002) vcan0 244#00000001C8
(1753640478.670651) vcan0 244#0000000170
(1753640478.685445) vcan0 244#0000000191
(1753640478.685516) vcan0 188#00000000
(1753640478.702902) vcan0 244#0000000126
(1753640478.716775) vcan0 244#00000001B6
(1753640478.746895) vcan0 244#00000001D6
(1753640478.763747) vcan0 244#0000000109
(1753640478.780028) vcan0 244#0000000101
(1753640478.795970) vcan0 244#000000019C
(1753640478.812368) vcan0 244#0000000196
(1753640478.826307) vcan0 244#0000000197
(1753640478.841320) vcan0 244#0000000154
(1753640478.857357) vcan0 244#000000012C
(1753640478.873498) vcan0 244#00000001C9
(1753640478.889156) vcan0 244#0000000162
(1753640478.912287) vcan0 244#00000001F1
(1753640478.935784) vcan0 244#000000011B
(1753640478.947059) vcan0 244#000000018B
(1753640478.967432) vcan0 244#00000001F9
(1753640478.983981) vcan0 244#000000011D
(1753640478.999432) vcan0 244#0000000166
(1753640479.017213) vcan0 244#00000001F9
(1753640479.029966) vcan0 244#0000000133
(1753640479.046343) vcan0 244#0000000186
(1753640479.061464) vcan0 244#0000000145
(1753640479.076897) vcan0 244#0000000125
(1753640479.093280) vcan0 244#0000000117
(1753640479.109464) vcan0 244#000000017F
(1753640479.124600) vcan0 244#00000001C7
(1753640479.140050) vcan0 244#0000000137
(1753640479.155950) vcan0 244#0000000154
(1753640479.171619) vcan0 244#000000012B
(1753640479.186944) vcan0 244#00000001C3
(1753640479.187042) vcan0 188#00000000
(1753640479.201937) vcan0 244#0000000182
(1753640479.217289) vcan0 244#00000001EF
(1753640479.232370) vcan0 244#0000000116
(1753640479.249181) vcan0 244#0000000174
(1753640479.264970) vcan0 19B#00000E000000
(1753640479.265051) vcan0 244#0000000114
(1753640479.280763) vcan0 244#0000000133
(1753640479.296233) vcan0 244#00000001AD
(1753640479.313005) vcan0 244#0000000147
(1753640479.326825) vcan0 244#0000000167
(1753640479.342865) vcan0 244#000000011D
(1753640479.353392) vcan0 244#0000000190
(1753640479.373714) vcan0 244#000000014B
(1753640479.389561) vcan0 244#000000019D
(1753640479.405833) vcan0 244#000000011D
(1753640479.421559) vcan0 244#0000000104
(1753640479.437280) vcan0 244#00000001C4
(1753640479.453155) vcan0 244#0000000133
(1753640479.465607) vcan0 244#000000013D
(1753640479.484525) vcan0 244#00000001C6
(1753640479.499673) vcan0 244#00000001C9
(1753640479.514773) vcan0 244#000000010D
(1753640479.530006) vcan0 244#00000001E9
(1753640479.545318) vcan0 244#000000012A
(1753640479.561011) vcan0 244#00000001D0
(1753640479.576210) vcan0 244#000000019D
(1753640479.595355) vcan0 244#0000000145
(1753640479.622145) vcan0 244#0000000133
(1753640479.636968) vcan0 244#00000001F0
(1753640479.652682) vcan0 244#0000000137
(1753640479.668171) vcan0 244#000000017C
(1753640479.683506) vcan0 244#000000014F
(1753640479.699282) vcan0 244#00000001D5
(1753640479.699335) vcan0 188#00000000
(1753640479.714791) vcan0 244#0000000187
(1753640479.730047) vcan0 244#0000000102
(1753640479.744905) vcan0 244#00000001E6
(1753640479.761570) vcan0 244#00000001B7
(1753640479.776613) vcan0 244#00000001D3
(1753640479.792983) vcan0 244#000000012F
(1753640479.808837) vcan0 244#000000011A
(1753640479.823752) vcan0 244#0000000155
(1753640479.845958) vcan0 244#00000001E9
(1753640479.870377) vcan0 244#0000000147
(1753640479.891709) vcan0 244#000000013E
(1753640479.916973) vcan0 244#0000000122
(1753640479.932148) vcan0 244#0000000181
(1753640479.948016) vcan0 244#000000015E
(1753640479.963793) vcan0 244#0000000184
(1753640479.979935) vcan0 244#0000000150
(1753640479.994917) vcan0 244#0000000138
(1753640480.011226) vcan0 244#00000001E6
(1753640480.027240) vcan0 244#0000000135
(1753640480.042316) vcan0 244#0000000161
(1753640480.058032) vcan0 244#00000001EB
(1753640480.072940) vcan0 244#00000001FD
(1753640480.089481) vcan0 244#000000014D
(1753640480.104787) vcan0 244#00000001A4
(1753640480.120080) vcan0 244#000000015E
(1753640480.135733) vcan0 244#000000011E
(1753640480.150551) vcan0 244#0000000130
(1753640480.166560) vcan0 244#0000000132
(1753640480.181534) vcan0 244#00000001B6
(1753640480.197386) vcan0 19B#00000C000000
(1753640480.197439) vcan0 244#000000019D
(1753640480.214528) vcan0 244#00000001A5
(1753640480.214773) vcan0 188#00000000
(1753640480.229215) vcan0 244#00000001D9
(1753640480.244371) vcan0 244#000000013B
(1753640480.260992) vcan0 244#00000001A7
(1753640480.272424) vcan0 244#00000001AC
(1753640480.292321) vcan0 244#000000012A
(1753640480.308719) vcan0 244#0000000173
(1753640480.324187) vcan0 244#0000000164
(1753640480.355362) vcan0 244#000000011D
(1753640480.370040) vcan0 244#0000000178
(1753640480.386175) vcan0 244#0000000147
(1753640480.402521) vcan0 244#00000001F8
(1753640480.417005) vcan0 244#0000000137
(1753640480.433769) vcan0 244#0000000165
(1753640480.448537) vcan0 244#0000000173
(1753640480.463381) vcan0 244#00000001D7
(1753640480.476998) vcan0 244#00000001D2
(1753640480.494545) vcan0 244#0000000147
(1753640480.510497) vcan0 244#00000001D9
(1753640480.525979) vcan0 244#00000001A4
(1753640480.541274) vcan0 244#00000001C5
(1753640480.557082) vcan0 244#00000001E1
(1753640480.572957) vcan0 244#00000001BD
(1753640480.587819) vcan0 244#00000001B0
(1753640480.603861) vcan0 244#0000000121
(1753640480.619573) vcan0 244#00000001B9
(1753640480.634835) vcan0 244#00000001EA
(1753640480.650719) vcan0 244#000000016F
(1753640480.666261) vcan0 244#0000000107
(1753640480.682614) vcan0 244#000000013C
(1753640480.698585) vcan0 244#00000001A8
(1753640480.713224) vcan0 244#00000001C8
(1753640480.719625) vcan0 188#00000000
(1753640480.725965) vcan0 244#0000000131
(1753640480.744246) vcan0 244#00000001FF
(1753640480.759476) vcan0 244#000000010B
(1753640480.775171) vcan0 244#000000017A
(1753640480.790790) vcan0 244#00000001C7
(1753640480.805673) vcan0 244#000000019A
(1753640480.821580) vcan0 244#000000017A
(1753640480.837140) vcan0 244#0000000100
(1753640480.852929) vcan0 244#00000001AF
(1753640480.868171) vcan0 244#00000001DD
(1753640480.883202) vcan0 244#0000000114
(1753640480.899122) vcan0 244#0000000102
(1753640480.915072) vcan0 244#00000001DF
(1753640480.932539) vcan0 244#0000000123
(1753640480.946254) vcan0 244#00000001F5
(1753640480.961959) vcan0 244#00000001CD
(1753640480.978012) vcan0 244#0000000187
(1753640480.988462) vcan0 244#000000016B
(1753640481.008132) vcan0 244#000000018D
(1753640481.024279) vcan0 244#00000001E8
(1753640481.039987) vcan0 244#00000001E8
(1753640481.054644) vcan0 244#00000001E7
(1753640481.070289) vcan0 244#00000001B4
(1753640481.086501) vcan0 244#0000000126
(1753640481.102955) vcan0 244#00000001BC
(1753640481.119197) vcan0 244#000000013A
(1753640481.134215) vcan0 244#0000000131
(1753640481.150209) vcan0 244#000000015F
(1753640481.164546) vcan0 244#0000000193
(1753640481.186073) vcan0 244#00000001F5
(1753640481.196273) vcan0 244#00000001C5
(1753640481.211818) vcan0 244#0000000160
(1753640481.226624) vcan0 244#0000000110
(1753640481.226767) vcan0 188#00000000
(1753640481.241781) vcan0 244#00000001EC
(1753640481.257008) vcan0 244#00000001F7
(1753640481.274635) vcan0 244#0000000174
(1753640481.288493) vcan0 244#0000000123
(1753640481.304010) vcan0 244#000000018D
(1753640481.319303) vcan0 244#0000000190
(1753640481.334708) vcan0 244#00000001EE
(1753640481.349819) vcan0 244#0000000107
(1753640481.365413) vcan0 244#0000000140
(1753640481.381277) vcan0 244#000000018D
(1753640481.397454) vcan0 244#0000000102
(1753640481.413493) vcan0 244#0000000180
(1753640481.429312) vcan0 244#000000019E
(1753640481.445369) vcan0 244#000000016C
(1753640481.461115) vcan0 244#00000001A3
(1753640481.473075) vcan0 244#00000001A5
(1753640481.486479) vcan0 244#0000000195
(1753640481.505745) vcan0 244#00000001A8
(1753640481.520896) vcan0 244#00000001AA
(1753640481.537149) vcan0 244#0000000198
(1753640481.552681) vcan0 244#00000001F8
(1753640481.569107) vcan0 244#000000016D
(1753640481.584638) vcan0 244#00000001F0
(1753640481.600837) vcan0 244#00000001D0
(1753640481.616568) vcan0 244#00000001BA
(1753640481.632278) vcan0 244#000000016D
(1753640481.647454) vcan0 244#00000001FF
(1753640481.663854) vcan0 244#00000001CB
(1753640481.679608) vcan0 244#000000014D
(1753640481.695323) vcan0 244#000000017D
(1753640481.710487) vcan0 244#0000000178
(1753640481.726449) vcan0 19B#000008000000
(1753640481.726616) vcan0 244#00000001D6
(1753640481.732755) vcan0 188#00000000
(1753640481.741542) vcan0 244#0000000110
(1753640481.755305) vcan0 244#0000000108
(1753640481.772885) vcan0 244#0000000115
(1753640481.787891) vcan0 244#0000000139
(1753640481.801424) vcan0 244#0000000134
(1753640481.818737) vcan0 244#00000001A0
(1753640481.833717) vcan0 244#000000015C
(1753640481.848715) vcan0 244#0000000192
(1753640481.865225) vcan0 244#0000000148
(1753640481.880888) vcan0 244#00000001FB
(1753640481.896285) vcan0 244#00000001AE
(1753640481.912234) vcan0 244#0000000183
(1753640481.927881) vcan0 244#0000000183
(1753640481.943434) vcan0 244#000000016E
(1753640481.958473) vcan0 244#0000000144
(1753640481.974433) vcan0 244#0000000134
(1753640481.989863) vcan0 244#00000001B2
(1753640482.004923) vcan0 244#000000018B
(1753640482.021096) vcan0 244#0000000169
(1753640482.037556) vcan0 244#0000000146
(1753640482.052658) vcan0 244#0000000113
(1753640482.069174) vcan0 244#0000000176
(1753640482.084276) vcan0 244#0000000132
(1753640482.099820) vcan0 244#00000001E9
(1753640482.114486) vcan0 244#00000001FE
(1753640482.129961) vcan0 244#000000014E
(1753640482.145239) vcan0 244#0000000150
(1753640482.160921) vcan0 244#00000001E8
(1753640482.175316) vcan0 244#0000000168
(1753640482.207139) vcan0 19B#000000000000
(1753640482.207205) vcan0 244#0000000165
(1753640482.218475) vcan0 244#000000015A
(1753640482.237436) vcan0 244#0000000194
(1753640482.237507) vcan0 188#00000000
(1753640482.252982) vcan0 244#0000000189
(1753640482.265289) vcan0 244#000000010D
(1753640482.283994) vcan0 244#00000001E9
(1753640482.299489) vcan0 244#000000015A
(1753640482.313253) vcan0 244#00000001C9
(1753640482.330396) vcan0 244#00000001E3
(1753640482.345791) vcan0 244#0000000108
(1753640482.361970) vcan0 244#00000001AF
(1753640482.376507) vcan0 244#00000001FA
(1753640482.391887) vcan0 244#0000000152
(1753640482.407149) vcan0 244#000000014D
(1753640482.422829) vcan0 244#000000011A
(1753640482.438802) vcan0 244#00000001DC
(1753640482.453260) vcan0 244#000000012E
(1753640482.469840) vcan0 244#000000016B
(1753640482.484405) vcan0 244#000000012A
(1753640482.500148) vcan0 244#0000000155
(1753640482.516177) vcan0 244#00000001EF
(1753640482.531038) vcan0 244#000000018E
(1753640482.547279) vcan0 244#0000000185
(1753640482.563305) vcan0 244#0000000181
(1753640482.577736) vcan0 244#000000015C
(1753640482.593890) vcan0 244#000000010A
(1753640482.608702) vcan0 244#000000011B
(1753640482.624744) vcan0 244#0000000147
(1753640482.641026) vcan0 244#00000001F7
(1753640482.656560) vcan0 244#00000001A0
(1753640482.672266) vcan0 244#00000001CB
(1753640482.687181) vcan0 244#0000000179
(1753640482.703327) vcan0 244#0000000117
(1753640482.718398) vcan0 244#00000001FB
(1753640482.734795) vcan0 244#000000011D
(1753640482.750125) vcan0 244#0000000140
(1753640482.750185) vcan0 188#00000000
(1753640482.765891) vcan0 244#0000000182
(1753640482.782469) vcan0 244#0000000194
(1753640482.813443) vcan0 244#00000001A6
(1753640482.829677) vcan0 244#0000000181
(1753640482.844662) vcan0 244#0000000138
(1753640482.860557) vcan0 244#0000000171
(1753640482.875681) vcan0 244#0000000117
(1753640482.891200) vcan0 244#00000001A8
(1753640482.907138) vcan0 244#000000015B
(1753640482.923419) vcan0 244#000000014D
(1753640482.938216) vcan0 244#0000000120
(1753640482.953995) vcan0 244#0000000126
(1753640482.970214) vcan0 244#0000000154
(1753640482.985568) vcan0 244#0000000168
(1753640483.016407) vcan0 244#0000000199
(1753640483.032419) vcan0 244#0000000160
(1753640483.047235) vcan0 244#0000000192
(1753640483.063127) vcan0 244#00000001BA
(1753640483.079714) vcan0 244#000000017E
(1753640483.095791) vcan0 244#000000010A
(1753640483.111399) vcan0 244#00000001E1
(1753640483.127344) vcan0 244#0000000136
(1753640483.143521) vcan0 244#000000016F
(1753640483.159307) vcan0 244#00000001F4
(1753640483.174620) vcan0 244#00000001F2
(1753640483.191192) vcan0 244#00000001D6
(1753640483.206531) vcan0 244#0000000189
(1753640483.221793) vcan0 244#00000001A6
(1753640483.238192) vcan0 244#000000016F
(1753640483.253344) vcan0 244#0000000143
(1753640483.253427) vcan0 188#00000000
(1753640483.268866) vcan0 244#0000000183
(1753640483.284493) vcan0 244#000000010C
(1753640483.300260) vcan0 244#0000000174
(1753640483.314889) vcan0 244#0000000145
(1753640483.330970) vcan0 244#0000000129
(1753640483.347078) vcan0 244#00000001C9
(1753640483.364247) vcan0 244#0000000152
(1753640483.378449) vcan0 244#00000001DD
(1753640483.394344) vcan0 244#000000010D
(1753640483.409123) vcan0 244#000000014A
(1753640483.425567) vcan0 244#00000001C8
(1753640483.441164) vcan0 244#0000000149
(1753640483.457151) vcan0 244#000000018E
(1753640483.472037) vcan0 244#0000000138
(1753640483.485596) vcan0 244#000000014D
(1753640483.503919) vcan0 244#00000001C3
(1753640483.518973) vcan0 244#0000000135
(1753640483.534401) vcan0 244#000000017C
(1753640483.550696) vcan0 244#0000000012
(1753640483.567098) vcan0 244#0000000024
(1753640483.582211) vcan0 244#0000000036
(1753640483.597351) vcan0 244#0000000048
(1753640483.613050) vcan0 244#000000005A
(1753640483.627543) vcan0 244#000000006C
(1753640483.643287) vcan0 244#000000007E
(1753640483.659480) vcan0 244#0000000090
(1753640483.675121) vcan0 244#00000000A2
(1753640483.690916) vcan0 244#00000000B5
(1753640483.705958) vcan0 244#00000000C7
(1753640483.721599) vcan0 244#00000000D9
(1753640483.737009) vcan0 244#00000000EB
(1753640483.752331) vcan0 244#00000000FD
(1753640483.768584) vcan0 244#000000010F
(1753640483.768655) vcan0 188#00000000
(1753640483.783954) vcan0 244#0000000121
(1753640483.798983) vcan0 244#0000000133
(1753640483.814857) vcan0 244#0000000145
(1753640483.831697) vcan0 244#0000000157
(1753640483.848051) vcan0 244#000000016A
(1753640483.862703) vcan0 244#000000017C
(1753640483.878280) vcan0 244#000000018E
(1753640483.893929) vcan0 244#00000001A0
(1753640483.909561) vcan0 244#00000001B2
(1753640483.924459) vcan0 244#00000001C4
(1753640483.939565) vcan0 244#00000001D6
(1753640483.954864) vcan0 244#00000001E8
(1753640483.970231) vcan0 244#00000001FA
(1753640483.985722) vcan0 244#000000020D
(1753640484.002511) vcan0 244#000000021F
(1753640484.017230) vcan0 244#0000000231
(1753640484.032428) vcan0 244#0000000243
(1753640484.048346) vcan0 244#0000000255
(1753640484.063603) vcan0 244#0000000267
(1753640484.079202) vcan0 244#0000000279
(1753640484.095247) vcan0 244#000000028B
(1753640484.110624) vcan0 244#000000029D
(1753640484.125700) vcan0 244#00000002AF
(1753640484.142106) vcan0 244#00000002C2
(1753640484.157357) vcan0 244#00000002D4
(1753640484.173773) vcan0 244#00000002E6
(1753640484.190786) vcan0 244#00000002F8
(1753640484.220113) vcan0 244#000000030A
(1753640484.235271) vcan0 244#000000031C
(1753640484.250032) vcan0 244#000000032E
(1753640484.266960) vcan0 244#0000000340
(1753640484.272483) vcan0 188#00000000
(1753640484.281365) vcan0 244#0000000352
(1753640484.297297) vcan0 244#0000000365
(1753640484.312438) vcan0 244#0000000377
(1753640484.328140) vcan0 244#0000000389
(1753640484.344072) vcan0 244#000000039B
(1753640484.360305) vcan0 244#00000003AD
(1753640484.376431) vcan0 244#00000003BF
(1753640484.392222) vcan0 244#00000003D1
(1753640484.403355) vcan0 244#00000003E3
(1753640484.422099) vcan0 244#00000003F5
(1753640484.437648) vcan0 244#0000000407
(1753640484.452709) vcan0 244#000000041A
(1753640484.466534) vcan0 244#000000042C
(1753640484.478924) vcan0 244#000000043E
(1753640484.492573) vcan0 244#0000000450
(1753640484.514282) vcan0 244#0000000462
(1753640484.529661) vcan0 244#0000000474
(1753640484.545390) vcan0 244#0000000486
(1753640484.561436) vcan0 244#0000000498
(1753640484.577870) vcan0 244#00000004AA
(1753640484.593832) vcan0 244#00000004BD
(1753640484.609776) vcan0 244#00000004CF
(1753640484.625022) vcan0 244#00000004E1
(1753640484.640432) vcan0 244#00000004F3
(1753640484.655295) vcan0 244#0000000505
(1753640484.671478) vcan0 244#0000000517
(1753640484.687394) vcan0 244#0000000529
(1753640484.709666) vcan0 244#000000053B
(1753640484.738098) vcan0 244#000000054D
(1753640484.764982) vcan0 244#000000055F
(1753640484.779689) vcan0 244#0000000572
(1753640484.779756) vcan0 188#00000000
(1753640484.796316) vcan0 244#0000000584
(1753640484.811427) vcan0 244#0000000596
(1753640484.827044) vcan0 244#00000005A8
(1753640484.841044) vcan0 244#00000005BA
(1753640484.856654) vcan0 244#00000005CC
(1753640484.872062) vcan0 244#00000005DE
(1753640484.887663) vcan0 244#00000005F0
(1753640484.899168) vcan0 244#0000000602
(1753640484.918502) vcan0 244#0000000615
(1753640484.934222) vcan0 244#0000000627
(1753640484.949607) vcan0 244#0000000639
(1753640484.965362) vcan0 244#0000000627
(1753640484.980629) vcan0 244#0000000615
(1753640484.996985) vcan0 244#0000000602
(1753640485.012318) vcan0 244#00000005F0
(1753640485.028304) vcan0 244#00000005DE
(1753640485.043598) vcan0 244#00000005CC
(1753640485.059739) vcan0 244#00000005BA
(1753640485.074796) vcan0 244#00000005A8
(1753640485.089861) vcan0 244#0000000596
(1753640485.106108) vcan0 244#0000000584
(1753640485.121531) vcan0 244#0000000572
(1753640485.136871) vcan0 244#000000055F
(1753640485.152416) vcan0 244#000000054D
(1753640485.169058) vcan0 244#000000053B
(1753640485.183257) vcan0 244#0000000529
(1753640485.198613) vcan0 244#0000000517
(1753640485.214448) vcan0 244#0000000505
(1753640485.254266) vcan0 244#00000004F3
(1753640485.277896) vcan0 244#00000004E1
(1753640485.293780) vcan0 244#00000004CF
(1753640485.293824) vcan0 188#00000000
(1753640485.309525) vcan0 244#00000004BD
(1753640485.326269) vcan0 244#00000004AA
(1753640485.340220) vcan0 244#0000000498
(1753640485.356701) vcan0 244#0000000486
(1753640485.371872) vcan0 244#0000000474
(1753640485.387717) vcan0 244#0000000462
(1753640485.403589) vcan0 244#0000000450
(1753640485.418308) vcan0 244#000000043E
(1753640485.433467) vcan0 244#000000042C
(1753640485.449339) vcan0 244#000000041A
(1753640485.464509) vcan0 244#0000000407
(1753640485.479768) vcan0 244#00000003F5
(1753640485.490923) vcan0 244#00000003E3
(1753640485.510489) vcan0 244#00000003D1
(1753640485.526684) vcan0 244#00000003BF
(1753640485.542845) vcan0 244#00000003AD
(1753640485.558349) vcan0 244#000000039B
(1753640485.573510) vcan0 244#0000000389
(1753640485.589581) vcan0 244#0000000377
(1753640485.603944) vcan0 244#0000000365
(1753640485.621511) vcan0 244#0000000352
(1753640485.637387) vcan0 244#0000000340
(1753640485.651171) vcan0 244#000000032E
(1753640485.666983) vcan0 244#000000031C
(1753640485.683105) vcan0 244#000000030A
(1753640485.698724) vcan0 244#00000002F8
(1753640485.713796) vcan0 244#00000002E6
(1753640485.729885) vcan0 244#00000002D4
(1753640485.744792) vcan0 244#00000002C2
(1753640485.760025) vcan0 244#00000002AF
(1753640485.776230) vcan0 244#000000029D
(1753640485.790943) vcan0 244#000000028B
(1753640485.796346) vcan0 188#00000000
(1753640485.802331) vcan0 244#0000000279
(1753640485.822512) vcan0 244#0000000267
(1753640485.838393) vcan0 244#0000000255
(1753640485.853890) vcan0 244#0000000243
(1753640485.869481) vcan0 244#0000000231
(1753640485.885106) vcan0 244#000000021F
(1753640485.900373) vcan0 244#000000020D
(1753640485.915844) vcan0 244#00000001FA
(1753640485.931242) vcan0 244#00000001E8
(1753640485.947000) vcan0 244#00000001D6
(1753640485.962689) vcan0 244#00000001C4
(1753640485.977490) vcan0 244#00000001B2
(1753640485.992785) vcan0 244#00000001A0
(1753640486.009316) vcan0 244#000000018E
(1753640486.023563) vcan0 244#000000017C
(1753640486.038999) vcan0 244#000000016A
(1753640486.054178) vcan0 244#0000000157
(1753640486.069522) vcan0 244#0000000145
(1753640486.082425) vcan0 244#0000000133
(1753640486.100654) vcan0 244#0000000121
(1753640486.115793) vcan0 244#000000010F
(1753640486.131620) vcan0 244#00000000FD
(1753640486.146344) vcan0 244#00000000EB
(1753640486.162961) vcan0 244#00000000D9
(1753640486.178622) vcan0 244#00000000C7
(1753640486.193910) vcan0 244#00000000B5
(1753640486.208892) vcan0 244#00000000A2
(1753640486.225104) vcan0 244#0000000199
(1753640486.240868) vcan0 244#00000001D0
(1753640486.256626) vcan0 244#0000000123
(1753640486.270162) vcan0 244#0000000116
(1753640486.286921) vcan0 244#00000001A3
(1753640486.302253) vcan0 244#00000001AE
(1753640486.302290) vcan0 188#02000000
(1753640486.316824) vcan0 244#0000000127
(1753640486.333321) vcan0 244#0000000131
(1753640486.348615) vcan0 244#0000000120
(1753640486.364802) vcan0 244#000000014C
(1753640486.380430) vcan0 244#00000001F4
(1753640486.396410) vcan0 244#00000001AB
(1753640486.411296) vcan0 244#000000012C
(1753640486.426456) vcan0 244#0000000193
(1753640486.442937) vcan0 244#0000000153
(1753640486.457870) vcan0 244#00000001BD
(1753640486.473613) vcan0 244#00000001F4
(1753640486.489277) vcan0 244#0000000199
(1753640486.504137) vcan0 244#0000000122
(1753640486.519067) vcan0 244#00000001E4
(1753640486.532503) vcan0 244#0000000113
(1753640486.550105) vcan0 244#000000014B
(1753640486.573975) vcan0 244#000000014A
(1753640486.597370) vcan0 244#00000001F7
(1753640486.631197) vcan0 244#0000000131
(1753640486.644858) vcan0 244#0000000175
(1753640486.660020) vcan0 244#000000014B
(1753640486.675296) vcan0 244#000000011C
(1753640486.691459) vcan0 244#0000000153
(1753640486.706469) vcan0 244#000000019E
(1753640486.722391) vcan0 244#00000001B4
(1753640486.737495) vcan0 244#0000000109
(1753640486.753872) vcan0 244#000000010A
(1753640486.767891) vcan0 244#00000001F3
(1753640486.783224) vcan0 244#000000013B
(1753640486.801109) vcan0 244#0000000149
(1753640486.813710) vcan0 244#000000013D
(1753640486.813787) vcan0 188#03000000
(1753640486.829818) vcan0 244#00000001FF
(1753640486.844796) vcan0 244#0000000197
(1753640486.860219) vcan0 244#00000001FB
(1753640486.875730) vcan0 244#00000001E9
(1753640486.891294) vcan0 244#00000001A7
(1753640486.906322) vcan0 244#00000001C2
(1753640486.921980) vcan0 244#00000001B2
(1753640486.938086) vcan0 244#0000000156
(1753640486.953956) vcan0 244#00000001B3
(1753640486.969630) vcan0 244#000000018B
(1753640486.984316) vcan0 244#00000001E7
(1753640486.999998) vcan0 244#00000001E8
(1753640487.016312) vcan0 244#0000000149
(1753640487.031810) vcan0 244#0000000168
(1753640487.046851) vcan0 244#0000000117
(1753640487.063271) vcan0 244#0000000131
(1753640487.080096) vcan0 244#00000001CF
(1753640487.093426) vcan0 244#000000012A
(1753640487.109114) vcan0 244#0000000100
(1753640487.124724) vcan0 244#00000001E0
(1753640487.140816) vcan0 244#0000000113
(1753640487.156807) vcan0 244#0000000138
(1753640487.172094) vcan0 244#0000000150
(1753640487.187490) vcan0 244#00000001CD
(1753640487.203382) vcan0 244#0000000189
(1753640487.219114) vcan0 244#00000001F6
(1753640487.235153) vcan0 244#0000000174
(1753640487.250728) vcan0 244#0000000199
(1753640487.266089) vcan0 244#00000001CE
(1753640487.280863) vcan0 244#00000001D9
(1753640487.297163) vcan0 244#0000000173
(1753640487.312459) vcan0 244#00000001EA
(1753640487.327402) vcan0 244#000000010C
(1753640487.327545) vcan0 188#01000000
(1753640487.340068) vcan0 244#000000018A
(1753640487.359515) vcan0 244#0000000170
(1753640487.373780) vcan0 244#00000001D0
(1753640487.389784) vcan0 244#00000001E9
(1753640487.405507) vcan0 244#000000013D
(1753640487.416154) vcan0 244#00000001C3
(1753640487.437353) vcan0 244#00000001B8
(1753640487.452986) vcan0 244#0000000166
(1753640487.468320) vcan0 244#0000000146
(1753640487.481582) vcan0 244#00000001BC
(1753640487.508866) vcan0 244#000000014B
(1753640487.520448) vcan0 244#00000001CB
(1753640487.546908) vcan0 244#00000001F0
(1753640487.562895) vcan0 244#000000019A
(1753640487.578151) vcan0 244#0000000136
(1753640487.593712) vcan0 244#0000000136
(1753640487.609359) vcan0 244#0000000136
(1753640487.627991) vcan0 244#0000000132
(1753640487.655740) vcan0 244#00000001E6
(1753640487.671563) vcan0 244#000000018B
(1753640487.683840) vcan0 244#000000019F
(1753640487.697414) vcan0 244#000000014F
(1753640487.714798) vcan0 244#000000012F
(1753640487.732672) vcan0 244#00000001B1
(1753640487.748966) vcan0 244#00000001DF
(1753640487.763746) vcan0 244#0000000165
(1753640487.778611) vcan0 244#000000011C
(1753640487.795011) vcan0 244#0000000154
(1753640487.810920) vcan0 244#0000000175
(1753640487.826386) vcan0 244#0000000122
(1753640487.832303) vcan0 188#00000000
(1753640487.841628) vcan0 244#000000017E
(1753640487.856780) vcan0 244#000000011A
(1753640487.871623) vcan0 244#000000012E
(1753640487.884996) vcan0 244#00000001EA
(1753640487.903748) vcan0 244#000000011F
(1753640487.918644) vcan0 244#0000000188
